date Tue Aug 25 10:00:00.000 2026
base hex  timestamps absolute
internal events logged
// version 1.0
// 走行シナリオ: 発進→加速→右旋回1周→直進→減速→停止 (0-65秒)
   0.000000 CANFD   1 Rx 181 1 0 f 64 98 3A 50 46 30 75 4E 75 00 00 00 00 00 00 00 00 00 00 00 00 00 00 00 00 00 00 00 00 00 00 00 00 00 00 00 00 00 00 00 00 00 00 00 00 00 00 00 00 00 00 00 00 00 00 00 00 00 00 00 00 00 00 00 00
   0.000300 CANFD   1 Rx 182 1 0 f 8 18 79 00 00 00 00 00 00
   0.000500 1  183             Rx   d 8 20 03 00 00 58 02 00 00
   0.001000 CANFD   1 Rx 184 1 0 f 16 00 80 00 80 10 27 00 00 00 00 00 00 00 00 00 00
   0.001500 CANFD   1 Rx 2A0 1 0 f 64 00 00 4C 04 00 00 00 00 00 00 00 00 00 00 00 00 00 00 00 00 00 00 00 00 00 00 00 00 00 00 00 00 00 00 00 00 00 00 00 00 8A 02 00 00 00 00 00 00 00 00 00 00 00 00 00 00 00 00 00 00 00 00 00 00
   0.002000 1  300             Rx   d 8 00 00 00 00 00 00 00 00
   0.002500 1  185             Rx   d 8 20 03 EC 04 00 00 00 00
   0.003000 1  186             Rx   d 8 30 75 00 00 44 02 00 00
   0.003500 1  310             Tx   d 8 80 00 00 00 00 00 00 00
   0.200000 CANFD   1 Rx 181 1 0 f 64 98 3A 50 46 33 75 4E 75 00 00 00 00 00 00 00 00 00 00 00 00 00 00 00 00 00 00 00 00 00 00 00 00 00 00 00 00 00 00 00 00 00 00 00 00 00 00 00 00 00 00 00 00 00 00 00 00 00 00 00 00 00 00 00 00
   0.200300 CANFD   1 Rx 182 1 0 f 8 1B 79 00 00 00 00 00 00
   0.200500 1  183             Rx   d 8 20 03 00 00 61 02 00 00
   0.201000 CANFD   1 Rx 184 1 0 f 16 00 80 00 80 10 27 00 00 00 00 00 00 00 00 00 00
   0.201500 CANFD   1 Rx 2A0 1 0 f 64 00 00 4C 04 00 00 00 00 00 00 00 00 00 00 00 00 00 00 00 00 00 00 00 00 00 00 00 00 00 00 00 00 00 00 00 00 00 00 00 00 93 02 00 00 00 00 00 00 00 00 00 00 00 00 00 00 00 00 00 00 00 00 00 00
   0.202000 1  300             Rx   d 8 00 00 00 00 00 00 00 00
   0.400000 CANFD   1 Rx 181 1 0 f 64 98 3A 50 46 36 75 4E 75 00 00 00 00 00 00 00 00 00 00 00 00 00 00 00 00 00 00 00 00 00 00 00 00 00 00 00 00 00 00 00 00 00 00 00 00 00 00 00 00 00 00 00 00 00 00 00 00 00 00 00 00 00 00 00 00
   0.400300 CANFD   1 Rx 182 1 0 f 8 1E 79 00 00 00 00 00 00
   0.400500 1  183             Rx   d 8 20 03 00 00 6A 02 00 00
   0.401000 CANFD   1 Rx 184 1 0 f 16 00 80 00 80 10 27 00 00 00 00 00 00 00 00 00 00
   0.401500 CANFD   1 Rx 2A0 1 0 f 64 00 00 4C 04 00 00 00 00 00 00 00 00 00 00 00 00 00 00 00 00 00 00 00 00 00 00 00 00 00 00 00 00 00 00 00 00 00 00 00 00 9C 02 00 00 00 00 00 00 00 00 00 00 00 00 00 00 00 00 00 00 00 00 00 00
   0.402000 1  300             Rx   d 8 00 00 00 00 00 00 00 00
   0.502500 1  185             Rx   d 8 20 03 EC 04 00 00 00 00
   0.503000 1  186             Rx   d 8 8B 93 00 00 45 02 00 00
   0.503500 1  310             Tx   d 8 80 00 00 00 00 00 00 00
   0.600000 CANFD   1 Rx 181 1 0 f 64 98 3A 50 46 39 75 4E 75 00 00 00 00 00 00 00 00 00 00 00 00 00 00 00 00 00 00 00 00 00 00 00 00 00 00 00 00 00 00 00 00 00 00 00 00 00 00 00 00 00 00 00 00 00 00 00 00 00 00 00 00 00 00 00 00
   0.600300 CANFD   1 Rx 182 1 0 f 8 20 79 00 00 00 00 00 00
   0.600500 1  183             Rx   d 8 20 03 00 00 73 02 00 00
   0.601000 CANFD   1 Rx 184 1 0 f 16 00 80 00 80 10 27 00 00 00 00 00 00 00 00 00 00
   0.601500 CANFD   1 Rx 2A0 1 0 f 64 00 00 4C 04 00 00 00 00 00 00 00 00 00 00 00 00 00 00 00 00 00 00 00 00 00 00 00 00 00 00 00 00 00 00 00 00 00 00 00 00 A5 02 00 00 00 00 00 00 00 00 00 00 00 00 00 00 00 00 00 00 00 00 00 00
   0.602000 1  300             Rx   d 8 00 00 00 00 00 00 00 00
   0.800000 CANFD   1 Rx 181 1 0 f 64 98 3A 50 46 3C 75 4E 75 00 00 00 00 00 00 00 00 00 00 00 00 00 00 00 00 00 00 00 00 00 00 00 00 00 00 00 00 00 00 00 00 00 00 00 00 00 00 00 00 00 00 00 00 00 00 00 00 00 00 00 00 00 00 00 00
   0.800300 CANFD   1 Rx 182 1 0 f 8 23 79 00 00 00 00 00 00
   0.800500 1  183             Rx   d 8 20 03 00 00 7C 02 00 00
   0.801000 CANFD   1 Rx 184 1 0 f 16 00 80 00 80 10 27 00 00 00 00 00 00 00 00 00 00
   0.801500 CANFD   1 Rx 2A0 1 0 f 64 00 00 4C 04 00 00 00 00 00 00 00 00 00 00 00 00 00 00 00 00 00 00 00 00 00 00 00 00 00 00 00 00 00 00 00 00 00 00 00 00 AE 02 00 00 00 00 00 00 00 00 00 00 00 00 00 00 00 00 00 00 00 00 00 00
   0.802000 1  300             Rx   d 8 00 00 00 00 00 00 00 00
   1.000000 CANFD   1 Rx 181 1 0 f 64 98 3A 50 46 3F 75 4D 75 00 00 00 00 00 00 00 00 00 00 00 00 00 00 00 00 00 00 00 00 00 00 00 00 00 00 00 00 00 00 00 00 00 00 00 00 00 00 00 00 00 00 00 00 00 00 00 00 00 00 00 00 00 00 00 00
   1.000300 CANFD   1 Rx 182 1 0 f 8 25 79 00 00 00 00 00 00
   1.000500 1  183             Rx   d 8 20 03 00 00 85 02 00 00
   1.001000 CANFD   1 Rx 184 1 0 f 16 00 80 00 80 10 27 00 00 00 00 00 00 00 00 00 00
   1.001500 CANFD   1 Rx 2A0 1 0 f 64 00 00 4C 04 00 00 00 00 00 00 00 00 00 00 00 00 00 00 00 00 00 00 00 00 00 00 00 00 00 00 00 00 00 00 00 00 00 00 00 00 B7 02 00 00 00 00 00 00 00 00 00 00 00 00 00 00 00 00 00 00 00 00 00 00
   1.002000 1  300             Rx   d 8 00 00 00 00 00 00 00 00
   1.002500 1  185             Rx   d 8 20 03 EC 04 00 00 00 00
   1.003000 1  186             Rx   d 8 09 AD 00 00 45 02 00 00
   1.003500 1  310             Tx   d 8 80 00 00 00 00 00 00 00
   1.200000 CANFD   1 Rx 181 1 0 f 64 98 3A 50 46 42 75 4D 75 00 00 00 00 00 00 00 00 00 00 00 00 00 00 00 00 00 00 00 00 00 00 00 00 00 00 00 00 00 00 00 00 00 00 00 00 00 00 00 00 00 00 00 00 00 00 00 00 00 00 00 00 00 00 00 00
   1.200300 CANFD   1 Rx 182 1 0 f 8 27 79 00 00 00 00 00 00
   1.200500 1  183             Rx   d 8 20 03 00 00 8E 02 00 00
   1.201000 CANFD   1 Rx 184 1 0 f 16 00 80 00 80 10 27 00 00 00 00 00 00 00 00 00 00
   1.201500 CANFD   1 Rx 2A0 1 0 f 64 00 00 4C 04 00 00 00 00 00 00 00 00 00 00 00 00 00 00 00 00 00 00 00 00 00 00 00 00 00 00 00 00 00 00 00 00 00 00 00 00 C0 02 00 00 00 00 00 00 00 00 00 00 00 00 00 00 00 00 00 00 00 00 00 00
   1.202000 1  300             Rx   d 8 00 00 00 00 00 00 00 00
   1.400000 CANFD   1 Rx 181 1 0 f 64 98 3A 50 46 44 75 4D 75 00 00 00 00 00 00 00 00 00 00 00 00 00 00 00 00 00 00 00 00 00 00 00 00 00 00 00 00 00 00 00 00 00 00 00 00 00 00 00 00 00 00 00 00 00 00 00 00 00 00 00 00 00 00 00 00
   1.400300 CANFD   1 Rx 182 1 0 f 8 29 79 00 00 00 00 00 00
   1.400500 1  183             Rx   d 8 20 03 00 00 96 02 00 00
   1.401000 CANFD   1 Rx 184 1 0 f 16 00 80 00 80 10 27 00 00 00 00 00 00 00 00 00 00
   1.401500 CANFD   1 Rx 2A0 1 0 f 64 00 00 4C 04 00 00 00 00 00 00 00 00 00 00 00 00 00 00 00 00 00 00 00 00 00 00 00 00 00 00 00 00 00 00 00 00 00 00 00 00 C8 02 00 00 00 00 00 00 00 00 00 00 00 00 00 00 00 00 00 00 00 00 00 00
   1.402000 1  300             Rx   d 8 00 00 00 00 00 00 00 00
   1.502500 1  185             Rx   d 8 1F 03 EC 04 00 00 00 00
   1.503000 1  186             Rx   d 8 F9 CB 00 00 46 02 00 00
   1.503500 1  310             Tx   d 8 80 00 00 00 00 00 00 00
   1.600000 CANFD   1 Rx 181 1 0 f 64 98 3A 50 46 47 75 4C 75 00 00 00 00 00 00 00 00 00 00 00 00 00 00 00 00 00 00 00 00 00 00 00 00 00 00 00 00 00 00 00 00 00 00 00 00 00 00 00 00 00 00 00 00 00 00 00 00 00 00 00 00 00 00 00 00
   1.600300 CANFD   1 Rx 182 1 0 f 8 2A 79 00 00 00 00 00 00
   1.600500 1  183             Rx   d 8 20 03 00 00 9F 02 00 00
   1.601000 CANFD   1 Rx 184 1 0 f 16 00 80 00 80 10 27 00 00 00 00 00 00 00 00 00 00
   1.601500 CANFD   1 Rx 2A0 1 0 f 64 00 00 4C 04 00 00 00 00 00 00 00 00 00 00 00 00 00 00 00 00 00 00 00 00 00 00 00 00 00 00 00 00 00 00 00 00 00 00 00 00 D1 02 00 00 00 00 00 00 00 00 00 00 00 00 00 00 00 00 00 00 00 00 00 00
   1.602000 1  300             Rx   d 8 00 00 00 00 00 00 00 00
   1.800000 CANFD   1 Rx 181 1 0 f 64 98 3A 50 46 4A 75 4C 75 00 00 00 00 00 00 00 00 00 00 00 00 00 00 00 00 00 00 00 00 00 00 00 00 00 00 00 00 00 00 00 00 00 00 00 00 00 00 00 00 00 00 00 00 00 00 00 00 00 00 00 00 00 00 00 00
   1.800300 CANFD   1 Rx 182 1 0 f 8 2B 79 00 00 00 00 00 00
   1.800500 1  183             Rx   d 8 20 03 00 00 A7 02 00 00
   1.801000 CANFD   1 Rx 184 1 0 f 16 00 80 00 80 10 27 00 00 00 00 00 00 00 00 00 00
   1.801500 CANFD   1 Rx 2A0 1 0 f 64 00 00 4C 04 00 00 00 00 00 00 00 00 00 00 00 00 00 00 00 00 00 00 00 00 00 00 00 00 00 00 00 00 00 00 00 00 00 00 00 00 D9 02 00 00 00 00 00 00 00 00 00 00 00 00 00 00 00 00 00 00 00 00 00 00
   1.802000 1  300             Rx   d 8 00 00 00 00 00 00 00 00
   2.000000 CANFD   1 Rx 181 1 0 f 64 98 3A 50 46 4C 75 4C 75 00 00 00 00 00 00 00 00 00 00 00 00 00 00 00 00 00 00 00 00 00 00 00 00 00 00 00 00 00 00 00 00 00 00 00 00 00 00 00 00 00 00 00 00 00 00 00 00 00 00 00 00 00 00 00 00
   2.000300 CANFD   1 Rx 182 1 0 f 8 2C 79 00 00 00 00 00 00
   2.000500 1  183             Rx   d 8 20 03 00 00 AF 02 00 00
   2.001000 CANFD   1 Rx 184 1 0 f 16 00 80 00 80 10 27 00 00 00 00 00 00 00 00 00 00
   2.001500 CANFD   1 Rx 2A0 1 0 f 64 00 00 4C 04 00 00 00 00 00 00 00 00 00 00 00 00 00 00 00 00 00 00 00 00 00 00 00 00 00 00 00 00 00 00 00 00 00 00 00 00 E1 02 00 00 00 00 00 00 00 00 00 00 00 00 00 00 00 00 00 00 00 00 00 00
   2.002000 1  300             Rx   d 8 00 00 00 00 00 00 00 00
   2.002500 1  185             Rx   d 8 1F 03 1A 04 00 00 00 00
   2.003000 1  186             Rx   d 8 68 E2 00 00 47 02 00 00
   2.003500 1  310             Tx   d 8 80 00 00 00 00 00 00 00
   2.200000 CANFD   1 Rx 181 1 0 f 64 98 3A 50 46 4F 75 4B 75 00 00 00 00 00 00 00 00 00 00 00 00 00 00 00 00 00 00 00 00 00 00 00 00 00 00 00 00 00 00 00 00 00 00 00 00 00 00 00 00 00 00 00 00 00 00 00 00 00 00 00 00 00 00 00 00
   2.200300 CANFD   1 Rx 182 1 0 f 8 2C 79 00 00 00 00 00 00
   2.200500 1  183             Rx   d 8 20 03 00 00 B7 02 00 00
   2.201000 CANFD   1 Rx 184 1 0 f 16 00 80 00 80 10 27 00 00 00 00 00 00 00 00 00 00
   2.201500 CANFD   1 Rx 2A0 1 0 f 64 00 00 7A 03 00 00 00 00 00 00 00 00 00 00 00 00 00 00 00 00 00 00 00 00 00 00 00 00 00 00 00 00 00 00 00 00 00 00 00 00 E9 02 00 00 00 00 00 00 00 00 00 00 00 00 00 00 00 00 00 00 00 00 00 00
   2.202000 1  300             Rx   d 8 00 00 00 00 00 00 00 00
   2.400000 CANFD   1 Rx 181 1 0 f 64 98 3A 50 46 51 75 4B 75 00 00 00 00 00 00 00 00 00 00 00 00 00 00 00 00 00 00 00 00 00 00 00 00 00 00 00 00 00 00 00 00 00 00 00 00 00 00 00 00 00 00 00 00 00 00 00 00 00 00 00 00 00 00 00 00
   2.400300 CANFD   1 Rx 182 1 0 f 8 2C 79 00 00 00 00 00 00
   2.400500 1  183             Rx   d 8 20 03 00 00 BF 02 00 00
   2.401000 CANFD   1 Rx 184 1 0 f 16 00 80 00 80 10 27 00 00 00 00 00 00 00 00 00 00
   2.401500 CANFD   1 Rx 2A0 1 0 f 64 00 00 7A 03 00 00 00 00 00 00 00 00 00 00 00 00 00 00 00 00 00 00 00 00 00 00 00 00 00 00 00 00 00 00 00 00 00 00 00 00 F1 02 00 00 00 00 00 00 00 00 00 00 00 00 00 00 00 00 00 00 00 00 00 00
   2.402000 1  300             Rx   d 8 00 00 00 00 00 00 00 00
   2.502500 1  185             Rx   d 8 1F 03 1A 04 00 00 00 00
   2.503000 1  186             Rx   d 8 31 FA 00 00 47 02 00 00
   2.503500 1  310             Tx   d 8 80 00 00 00 00 00 00 00
   2.600000 CANFD   1 Rx 181 1 0 f 64 98 3A 50 46 53 75 4A 75 00 00 00 00 00 00 00 00 00 00 00 00 00 00 00 00 00 00 00 00 00 00 00 00 00 00 00 00 00 00 00 00 00 00 00 00 00 00 00 00 00 00 00 00 00 00 00 00 00 00 00 00 00 00 00 00
   2.600300 CANFD   1 Rx 182 1 0 f 8 2B 79 00 00 00 00 00 00
   2.600500 1  183             Rx   d 8 20 03 00 00 C7 02 00 00
   2.601000 CANFD   1 Rx 184 1 0 f 16 00 80 00 80 10 27 00 00 00 00 00 00 00 00 00 00
   2.601500 CANFD   1 Rx 2A0 1 0 f 64 00 00 7A 03 00 00 00 00 00 00 00 00 00 00 00 00 00 00 00 00 00 00 00 00 00 00 00 00 00 00 00 00 00 00 00 00 00 00 00 00 F9 02 00 00 00 00 00 00 00 00 00 00 00 00 00 00 00 00 00 00 00 00 00 00
   2.602000 1  300             Rx   d 8 00 00 00 00 00 00 00 00
   2.800000 CANFD   1 Rx 181 1 0 f 64 98 3A 50 46 55 75 49 75 00 00 00 00 00 00 00 00 00 00 00 00 00 00 00 00 00 00 00 00 00 00 00 00 00 00 00 00 00 00 00 00 00 00 00 00 00 00 00 00 00 00 00 00 00 00 00 00 00 00 00 00 00 00 00 00
   2.800300 CANFD   1 Rx 182 1 0 f 8 2B 79 00 00 00 00 00 00
   2.800500 1  183             Rx   d 8 20 03 00 00 CF 02 00 00
   2.801000 CANFD   1 Rx 184 1 0 f 16 00 80 00 80 10 27 00 00 00 00 00 00 00 00 00 00
   2.801500 CANFD   1 Rx 2A0 1 0 f 64 00 00 7A 03 00 00 00 00 00 00 00 00 00 00 00 00 00 00 00 00 00 00 00 00 00 00 00 00 00 00 00 00 00 00 00 00 00 00 00 00 01 03 00 00 00 00 00 00 00 00 00 00 00 00 00 00 00 00 00 00 00 00 00 00
   2.802000 1  300             Rx   d 8 00 00 00 00 00 00 00 00
   3.000000 CANFD   1 Rx 181 1 0 f 64 98 3A 50 46 57 75 49 75 00 00 00 00 00 00 00 00 00 00 00 00 00 00 00 00 00 00 00 00 00 00 00 00 00 00 00 00 00 00 00 00 00 00 00 00 00 00 00 00 00 00 00 00 00 00 00 00 00 00 00 00 00 00 00 00
   3.000300 CANFD   1 Rx 182 1 0 f 8 29 79 00 00 00 00 00 00
   3.000500 1  183             Rx   d 8 20 03 00 00 D7 02 00 00
   3.001000 CANFD   1 Rx 184 1 0 f 16 00 80 00 80 10 27 00 00 00 00 00 00 00 00 00 00
   3.001500 CANFD   1 Rx 2A0 1 0 f 64 00 00 7A 03 00 00 00 00 00 00 00 00 00 00 00 00 00 00 00 00 00 00 00 00 00 00 00 00 00 00 00 00 00 00 00 00 00 00 00 00 09 03 00 00 00 00 00 00 00 00 00 00 00 00 00 00 00 00 00 00 00 00 00 00
   3.002000 1  300             Rx   d 8 00 00 00 00 00 00 00 00
   3.002500 1  185             Rx   d 8 1E 03 1A 04 00 00 00 00
   3.003000 1  186             Rx   d 8 73 0F 01 00 47 02 00 00
   3.003500 1  310             Tx   d 8 80 00 00 00 00 00 00 00
   3.200000 CANFD   1 Rx 181 1 0 f 64 98 3A 50 46 59 75 48 75 00 00 00 00 00 00 00 00 00 00 00 00 00 00 00 00 00 00 00 00 00 00 00 00 00 00 00 00 00 00 00 00 00 00 00 00 00 00 00 00 00 00 00 00 00 00 00 00 00 00 00 00 00 00 00 00
   3.200300 CANFD   1 Rx 182 1 0 f 8 28 79 00 00 00 00 00 00
   3.200500 1  183             Rx   d 8 20 03 00 00 DE 02 00 00
   3.201000 CANFD   1 Rx 184 1 0 f 16 00 80 00 80 10 27 00 00 00 00 00 00 00 00 00 00
   3.201500 CANFD   1 Rx 2A0 1 0 f 64 00 00 7C 03 00 00 00 00 00 00 00 00 00 00 00 00 00 00 00 00 00 00 00 00 00 00 00 00 00 00 00 00 00 00 00 00 00 00 00 00 10 03 00 00 00 00 00 00 00 00 00 00 00 00 00 00 00 00 00 00 00 00 00 00
   3.202000 1  300             Rx   d 8 00 00 00 00 00 00 00 00
   3.400000 CANFD   1 Rx 181 1 0 f 64 98 3A 50 46 5B 75 47 75 00 00 00 00 00 00 00 00 00 00 00 00 00 00 00 00 00 00 00 00 00 00 00 00 00 00 00 00 00 00 00 00 00 00 00 00 00 00 00 00 00 00 00 00 00 00 00 00 00 00 00 00 00 00 00 00
   3.400300 CANFD   1 Rx 182 1 0 f 8 26 79 00 00 00 00 00 00
   3.400500 1  183             Rx   d 8 20 03 00 00 E6 02 00 00
   3.401000 CANFD   1 Rx 184 1 0 f 16 00 80 00 80 10 27 00 00 00 00 00 00 00 00 00 00
   3.401500 CANFD   1 Rx 2A0 1 0 f 64 00 00 81 03 00 00 00 00 00 00 00 00 00 00 00 00 00 00 00 00 00 00 00 00 00 00 00 00 00 00 00 00 00 00 00 00 00 00 00 00 18 03 00 00 00 00 00 00 00 00 00 00 00 00 00 00 00 00 00 00 00 00 00 00
   3.402000 1  300             Rx   d 8 00 00 00 00 00 00 00 00
   3.502500 1  185             Rx   d 8 1E 03 24 04 00 00 00 00
   3.503000 1  186             Rx   d 8 B3 1C 01 00 47 02 00 00
   3.503500 1  310             Tx   d 8 80 00 00 00 00 00 00 00
   3.600000 CANFD   1 Rx 181 1 0 f 64 98 3A 50 46 5C 75 47 75 00 00 00 00 00 00 00 00 00 00 00 00 00 00 00 00 00 00 00 00 00 00 00 00 00 00 00 00 00 00 00 00 00 00 00 00 00 00 00 00 00 00 00 00 00 00 00 00 00 00 00 00 00 00 00 00
   3.600300 CANFD   1 Rx 182 1 0 f 8 24 79 00 00 00 00 00 00
   3.600500 1  183             Rx   d 8 20 03 00 00 ED 02 00 00
   3.601000 CANFD   1 Rx 184 1 0 f 16 00 80 00 80 10 27 00 00 00 00 00 00 00 00 00 00
   3.601500 CANFD   1 Rx 2A0 1 0 f 64 00 00 89 03 00 00 00 00 00 00 00 00 00 00 00 00 00 00 00 00 00 00 00 00 00 00 00 00 00 00 00 00 00 00 00 00 00 00 00 00 1F 03 00 00 00 00 00 00 00 00 00 00 00 00 00 00 00 00 00 00 00 00 00 00
   3.602000 1  300             Rx   d 8 00 00 00 00 00 00 00 00
   3.800000 CANFD   1 Rx 181 1 0 f 64 98 3A 50 46 5D 75 46 75 00 00 00 00 00 00 00 00 00 00 00 00 00 00 00 00 00 00 00 00 00 00 00 00 00 00 00 00 00 00 00 00 00 00 00 00 00 00 00 00 00 00 00 00 00 00 00 00 00 00 00 00 00 00 00 00
   3.800300 CANFD   1 Rx 182 1 0 f 8 21 79 00 00 00 00 00 00
   3.800500 1  183             Rx   d 8 20 03 00 00 F5 02 00 00
   3.801000 CANFD   1 Rx 184 1 0 f 16 00 80 00 80 10 27 00 00 00 00 00 00 00 00 00 00
   3.801500 CANFD   1 Rx 2A0 1 0 f 64 00 00 93 03 00 00 00 00 00 00 00 00 00 00 00 00 00 00 00 00 00 00 00 00 00 00 00 00 00 00 00 00 00 00 00 00 00 00 00 00 27 03 00 00 00 00 00 00 00 00 00 00 00 00 00 00 00 00 00 00 00 00 00 00
   3.802000 1  300             Rx   d 8 00 00 00 00 00 00 00 00
   4.000000 CANFD   1 Rx 181 1 0 f 64 98 3A 50 46 5F 75 45 75 00 00 00 00 00 00 00 00 00 00 00 00 00 00 00 00 00 00 00 00 00 00 00 00 00 00 00 00 00 00 00 00 00 00 00 00 00 00 00 00 00 00 00 00 00 00 00 00 00 00 00 00 00 00 00 00
   4.000300 CANFD   1 Rx 182 1 0 f 8 1F 79 00 00 00 00 00 00
   4.000500 1  183             Rx   d 8 20 03 00 00 FC 02 00 00
   4.001000 CANFD   1 Rx 184 1 0 f 16 00 80 00 80 10 27 00 00 00 00 00 00 00 00 00 00
   4.001500 CANFD   1 Rx 2A0 1 0 f 64 00 00 A0 03 00 00 00 00 00 00 00 00 00 00 00 00 00 00 00 00 00 00 00 00 00 00 00 00 00 00 00 00 00 00 00 00 00 00 00 00 2E 03 00 00 00 00 00 00 00 00 00 00 00 00 00 00 00 00 00 00 00 00 00 00
   4.002000 1  300             Rx   d 8 00 00 00 00 00 00 00 00
   4.002500 1  185             Rx   d 8 1E 03 40 04 00 00 00 00
   4.003000 1  186             Rx   d 8 02 2D 01 00 47 02 00 00
   4.003500 1  310             Tx   d 8 80 00 00 00 00 00 00 00
   4.200000 CANFD   1 Rx 181 1 0 f 64 98 3A 50 46 60 75 44 75 00 00 00 00 00 00 00 00 00 00 00 00 00 00 00 00 00 00 00 00 00 00 00 00 00 00 00 00 00 00 00 00 00 00 00 00 00 00 00 00 00 00 00 00 00 00 00 00 00 00 00 00 00 00 00 00
   4.200300 CANFD   1 Rx 182 1 0 f 8 1C 79 00 00 00 00 00 00
   4.200500 1  183             Rx   d 8 20 03 00 00 03 03 00 00
   4.201000 CANFD   1 Rx 184 1 0 f 16 00 80 00 80 10 27 00 00 00 00 00 00 00 00 00 00
   4.201500 CANFD   1 Rx 2A0 1 0 f 64 00 00 B0 03 00 00 00 00 00 00 00 00 00 00 00 00 00 00 00 00 00 00 00 00 00 00 00 00 00 00 00 00 00 00 00 00 00 00 00 00 35 03 00 00 00 00 00 00 00 00 00 00 00 00 00 00 00 00 00 00 00 00 00 00
   4.202000 1  300             Rx   d 8 00 00 00 00 00 00 00 00
   4.400000 CANFD   1 Rx 181 1 0 f 64 98 3A 50 46 60 75 43 75 00 00 00 00 00 00 00 00 00 00 00 00 00 00 00 00 00 00 00 00 00 00 00 00 00 00 00 00 00 00 00 00 00 00 00 00 00 00 00 00 00 00 00 00 00 00 00 00 00 00 00 00 00 00 00 00
   4.400300 CANFD   1 Rx 182 1 0 f 8 19 79 00 00 00 00 00 00
   4.400500 1  183             Rx   d 8 20 03 00 00 0A 03 00 00
   4.401000 CANFD   1 Rx 184 1 0 f 16 00 80 00 80 10 27 00 00 00 00 00 00 00 00 00 00
   4.401500 CANFD   1 Rx 2A0 1 0 f 64 00 00 C1 03 00 00 00 00 00 00 00 00 00 00 00 00 00 00 00 00 00 00 00 00 00 00 00 00 00 00 00 00 00 00 00 00 00 00 00 00 3C 03 00 00 00 00 00 00 00 00 00 00 00 00 00 00 00 00 00 00 00 00 00 00
   4.402000 1  300             Rx   d 8 00 00 00 00 00 00 00 00
   4.502500 1  185             Rx   d 8 1E 03 6A 04 00 00 00 00
   4.503000 1  186             Rx   d 8 CF 32 01 00 46 02 00 00
   4.503500 1  310             Tx   d 8 80 00 00 00 00 00 00 00
   4.600000 CANFD   1 Rx 181 1 0 f 64 98 3A 50 46 61 75 42 75 00 00 00 00 00 00 00 00 00 00 00 00 00 00 00 00 00 00 00 00 00 00 00 00 00 00 00 00 00 00 00 00 00 00 00 00 00 00 00 00 00 00 00 00 00 00 00 00 00 00 00 00 00 00 00 00
   4.600300 CANFD   1 Rx 182 1 0 f 8 16 79 00 00 00 00 00 00
   4.600500 1  183             Rx   d 8 20 03 00 00 11 03 00 00
   4.601000 CANFD   1 Rx 184 1 0 f 16 00 80 00 80 10 27 00 00 00 00 00 00 00 00 00 00
   4.601500 CANFD   1 Rx 2A0 1 0 f 64 00 00 D3 03 00 00 00 00 00 00 00 00 00 00 00 00 00 00 00 00 00 00 00 00 00 00 00 00 00 00 00 00 00 00 00 00 00 00 00 00 43 03 00 00 00 00 00 00 00 00 00 00 00 00 00 00 00 00 00 00 00 00 00 00
   4.602000 1  300             Rx   d 8 00 00 00 00 00 00 00 00
   4.800000 CANFD   1 Rx 181 1 0 f 64 98 3A 50 46 62 75 41 75 00 00 00 00 00 00 00 00 00 00 00 00 00 00 00 00 00 00 00 00 00 00 00 00 00 00 00 00 00 00 00 00 00 00 00 00 00 00 00 00 00 00 00 00 00 00 00 00 00 00 00 00 00 00 00 00
   4.800300 CANFD   1 Rx 182 1 0 f 8 14 79 00 00 00 00 00 00
   4.800500 1  183             Rx   d 8 20 03 00 00 18 03 00 00
   4.801000 CANFD   1 Rx 184 1 0 f 16 00 80 00 80 10 27 00 00 00 00 00 00 00 00 00 00
   4.801500 CANFD   1 Rx 2A0 1 0 f 64 00 00 E7 03 00 00 00 00 00 00 00 00 00 00 00 00 00 00 00 00 00 00 00 00 00 00 00 00 00 00 00 00 00 00 00 00 00 00 00 00 4A 03 00 00 00 00 00 00 00 00 00 00 00 00 00 00 00 00 00 00 00 00 00 00
   4.802000 1  300             Rx   d 8 00 00 00 00 00 00 00 00
   5.000000 CANFD   1 Rx 181 1 0 f 64 98 3A 50 46 62 75 40 75 00 00 00 00 00 00 00 00 00 00 00 00 00 00 00 00 00 00 00 00 00 00 00 00 00 00 00 00 00 00 00 00 00 00 00 00 00 00 00 00 00 00 00 00 00 00 00 00 00 00 00 00 00 00 00 00
   5.000300 CANFD   1 Rx 182 1 0 f 8 11 79 00 00 00 00 00 00
   5.000500 1  183             Rx   d 8 20 03 00 00 1E 03 00 00
   5.001000 CANFD   1 Rx 184 1 0 f 16 00 80 00 80 10 27 00 00 00 00 00 00 00 00 00 00
   5.001500 CANFD   1 Rx 2A0 1 0 f 64 00 00 FC 03 00 00 00 00 00 00 00 00 00 00 00 00 00 00 00 00 00 00 00 00 00 00 00 00 00 00 00 00 00 00 00 00 00 00 00 00 50 03 00 00 00 00 00 00 00 00 00 00 00 00 00 00 00 00 00 00 00 00 00 00
   5.002000 1  300             Rx   d 8 00 00 00 00 00 00 00 00
   5.002500 1  185             Rx   d 8 1E 03 9C 04 00 00 00 00
   5.003000 1  186             Rx   d 8 C1 37 01 00 46 02 00 00
   5.003500 1  310             Tx   d 8 80 00 00 00 00 00 00 00
   5.200000 CANFD   1 Rx 181 1 0 f 64 98 3A 50 46 62 75 3F 75 00 00 00 00 00 00 00 00 00 00 00 00 00 00 00 00 00 00 00 00 00 00 00 00 00 00 00 00 00 00 00 00 00 00 00 00 00 00 00 00 00 00 00 00 00 00 00 00 00 00 00 00 00 00 00 00
   5.200300 CANFD   1 Rx 182 1 0 f 8 0E 79 00 00 00 00 00 00
   5.200500 1  183             Rx   d 8 20 03 00 00 25 03 00 00
   5.201000 CANFD   1 Rx 184 1 0 f 16 00 80 00 80 10 27 00 00 00 00 00 00 00 00 00 00
   5.201500 CANFD   1 Rx 2A0 1 0 f 64 01 00 12 04 00 00 00 00 00 00 00 00 00 00 00 00 00 00 00 00 00 00 00 00 00 00 00 00 00 00 00 00 00 00 00 00 00 00 00 00 57 03 00 00 00 00 00 00 00 00 00 00 00 00 00 00 00 00 00 00 00 00 00 00
   5.202000 1  300             Rx   d 8 00 00 00 00 00 00 00 00
   5.400000 CANFD   1 Rx 181 1 0 f 64 98 3A 50 46 62 75 3E 75 00 00 00 00 00 00 00 00 00 00 00 00 00 00 00 00 00 00 00 00 00 00 00 00 00 00 00 00 00 00 00 00 00 00 00 00 00 00 00 00 00 00 00 00 00 00 00 00 00 00 00 00 00 00 00 00
   5.400300 CANFD   1 Rx 182 1 0 f 8 0C 79 00 00 00 00 00 00
   5.400500 1  183             Rx   d 8 20 03 00 00 2C 03 00 00
   5.401000 CANFD   1 Rx 184 1 0 f 16 00 80 00 80 0F 27 00 00 00 00 00 00 00 00 00 00
   5.401500 CANFD   1 Rx 2A0 1 0 f 64 02 00 28 04 00 00 00 00 00 00 00 00 00 00 00 00 00 00 00 00 00 00 00 00 00 00 00 00 00 00 00 00 00 00 00 00 00 00 00 00 5E 03 00 00 00 00 00 00 00 00 00 00 00 00 00 00 00 00 00 00 00 00 00 00
   5.402000 1  300             Rx   d 8 00 00 00 00 00 00 00 00
   5.502500 1  185             Rx   d 8 1D 03 D3 04 00 00 00 00
   5.503000 1  186             Rx   d 8 41 39 01 00 45 02 00 00
   5.503500 1  310             Tx   d 8 80 00 00 00 00 00 00 00
   5.600000 CANFD   1 Rx 181 1 0 f 64 98 3A 50 46 62 75 3D 75 00 00 00 00 00 00 00 00 00 00 00 00 00 00 00 00 00 00 00 00 00 00 00 00 00 00 00 00 00 00 00 00 00 00 00 00 00 00 00 00 00 00 00 00 00 00 00 00 00 00 00 00 00 00 00 00
   5.600300 CANFD   1 Rx 182 1 0 f 8 0A 79 00 00 00 00 00 00
   5.600500 1  183             Rx   d 8 20 03 00 00 32 03 00 00
   5.601000 CANFD   1 Rx 184 1 0 f 16 00 80 00 80 11 27 00 00 00 00 00 00 00 00 00 00
   5.601500 CANFD   1 Rx 2A0 1 0 f 64 05 00 3E 04 00 00 00 00 00 00 00 00 00 00 00 00 00 00 00 00 00 00 00 00 00 00 00 00 00 00 00 00 00 00 00 00 00 00 00 00 64 03 00 00 00 00 00 00 00 00 00 00 00 00 00 00 00 00 00 00 00 00 00 00
   5.602000 1  300             Rx   d 8 00 00 00 00 00 00 00 00
   5.800000 CANFD   1 Rx 181 1 0 f 64 98 3A 50 46 61 75 3C 75 00 00 00 00 00 00 00 00 00 00 00 00 00 00 00 00 00 00 00 00 00 00 00 00 00 00 00 00 00 00 00 00 00 00 00 00 00 00 00 00 00 00 00 00 00 00 00 00 00 00 00 00 00 00 00 00
   5.800300 CANFD   1 Rx 182 1 0 f 8 08 79 00 00 00 00 00 00
   5.800500 1  183             Rx   d 8 20 03 00 00 38 03 00 00
   5.801000 CANFD   1 Rx 184 1 0 f 16 00 80 00 80 0E 27 00 00 00 00 00 00 00 00 00 00
   5.801500 CANFD   1 Rx 2A0 1 0 f 64 09 00 54 04 00 00 00 00 00 00 00 00 00 00 00 00 00 00 00 00 00 00 00 00 00 00 00 00 00 00 00 00 00 00 00 00 00 00 00 00 6A 03 00 00 00 00 00 00 00 00 00 00 00 00 00 00 00 00 00 00 00 00 00 00
   5.802000 1  300             Rx   d 8 00 00 00 00 00 00 00 00
   6.000000 CANFD   1 Rx 181 1 0 f 64 98 3A 50 46 61 75 3B 75 00 00 00 00 00 00 00 00 00 00 00 00 00 00 00 00 00 00 00 00 00 00 00 00 00 00 00 00 00 00 00 00 00 00 00 00 00 00 00 00 00 00 00 00 00 00 00 00 00 00 00 00 00 00 00 00
   6.000300 CANFD   1 Rx 182 1 0 f 8 07 79 00 00 00 00 00 00
   6.000500 1  183             Rx   d 8 C3 03 01 00 3F 03 00 00
   6.001000 CANFD   1 Rx 184 1 0 f 16 00 80 00 80 10 27 00 00 00 00 00 00 00 00 00 00
   6.001500 CANFD   1 Rx 2A0 1 0 f 64 0E 00 6A 04 00 00 00 00 00 00 00 00 00 00 00 00 00 00 00 00 00 00 00 00 00 00 00 00 00 00 00 00 00 00 00 00 00 00 00 00 71 03 00 00 00 00 00 00 00 00 00 00 00 00 00 00 00 00 00 00 00 00 00 00
   6.002000 1  300             Rx   d 8 00 00 00 00 00 00 00 00
   6.002500 1  185             Rx   d 8 1D 03 0A 05 00 00 00 00
   6.003000 1  186             Rx   d 8 76 31 01 00 44 02 00 00
   6.003500 1  310             Tx   d 8 80 00 00 00 00 00 00 00
   6.200000 CANFD   1 Rx 181 1 0 f 64 98 3A 50 46 60 75 3A 75 00 00 00 00 00 00 00 00 00 00 00 00 00 00 00 00 00 00 00 00 00 00 00 00 00 00 00 00 00 00 00 00 00 00 00 00 00 00 00 00 00 00 00 00 00 00 00 00 00 00 00 00 00 00 00 00
   6.200300 CANFD   1 Rx 182 1 0 f 8 05 79 00 00 00 00 00 00
   6.200500 1  183             Rx   d 8 DD 03 01 00 45 03 00 00
   6.201000 CANFD   1 Rx 184 1 0 f 16 00 80 00 80 14 27 00 00 00 00 00 00 00 00 00 00
   6.201500 CANFD   1 Rx 2A0 1 0 f 64 14 00 7F 04 00 00 00 00 00 00 00 00 00 00 00 00 00 00 00 00 00 00 00 00 00 00 00 00 00 00 00 00 00 00 00 00 00 00 00 00 77 03 00 00 00 00 00 00 00 00 00 00 00 00 00 00 00 00 00 00 00 00 00 00
   6.202000 1  300             Rx   d 8 00 00 00 00 00 00 00 00
   6.400000 CANFD   1 Rx 181 1 0 f 64 98 3A 50 46 5F 75 39 75 00 00 00 00 00 00 00 00 00 00 00 00 00 00 00 00 00 00 00 00 00 00 00 00 00 00 00 00 00 00 00 00 00 00 00 00 00 00 00 00 00 00 00 00 00 00 00 00 00 00 00 00 00 00 00 00
   6.400300 CANFD   1 Rx 182 1 0 f 8 05 79 00 00 00 00 00 00
   6.400500 1  183             Rx   d 8 FC 03 01 00 4B 03 00 00
   6.401000 CANFD   1 Rx 184 1 0 f 16 00 80 00 80 08 27 00 00 00 00 00 00 00 00 00 00
   6.401500 CANFD   1 Rx 2A0 1 0 f 64 1B 00 93 04 00 00 00 00 00 00 00 00 00 00 00 00 00 00 00 00 00 00 00 00 00 00 00 00 00 00 00 00 00 00 00 00 00 00 00 00 7D 03 00 00 00 00 00 00 00 00 00 00 00 00 00 00 00 00 00 00 00 00 00 00
   6.402000 1  300             Rx   d 8 00 00 00 00 00 00 00 00
   6.502500 1  185             Rx   d 8 1D 03 3C 05 00 00 00 00
   6.503000 1  186             Rx   d 8 5A 2C 01 00 44 02 00 00
   6.503500 1  310             Tx   d 8 80 00 00 00 00 00 00 00
   6.600000 CANFD   1 Rx 181 1 0 f 64 98 3A 50 46 5E 75 37 75 00 00 00 00 00 00 00 00 00 00 00 00 00 00 00 00 00 00 00 00 00 00 00 00 00 00 00 00 00 00 00 00 00 00 00 00 00 00 00 00 00 00 00 00 00 00 00 00 00 00 00 00 00 00 00 00
   6.600300 CANFD   1 Rx 182 1 0 f 8 04 79 00 00 00 00 00 00
   6.600500 1  183             Rx   d 8 1E 04 01 00 51 03 00 00
   6.601000 CANFD   1 Rx 184 1 0 f 16 01 80 00 80 1A 27 00 00 00 00 00 00 00 00 00 00
   6.601500 CANFD   1 Rx 2A0 1 0 f 64 22 00 A5 04 00 00 00 00 00 00 00 00 00 00 00 00 00 00 00 00 00 00 00 00 00 00 00 00 00 00 00 00 00 00 00 00 00 00 00 00 83 03 00 00 00 00 00 00 00 00 00 00 00 00 00 00 00 00 00 00 00 00 00 00
   6.602000 1  300             Rx   d 8 00 00 00 00 00 00 00 00
   6.800000 CANFD   1 Rx 181 1 0 f 64 98 3A 50 46 5D 75 36 75 00 00 00 00 00 00 00 00 00 00 00 00 00 00 00 00 00 00 00 00 00 00 00 00 00 00 00 00 00 00 00 00 00 00 00 00 00 00 00 00 00 00 00 00 00 00 00 00 00 00 00 00 00 00 00 00
   6.800300 CANFD   1 Rx 182 1 0 f 8 04 79 00 00 00 00 00 00
   6.800500 1  183             Rx   d 8 44 04 01 00 57 03 00 00
   6.801000 CANFD   1 Rx 184 1 0 f 16 01 80 00 80 08 27 00 00 00 00 00 00 00 00 00 00
   6.801500 CANFD   1 Rx 2A0 1 0 f 64 2B 00 B6 04 00 00 00 00 00 00 00 00 00 00 00 00 00 00 00 00 00 00 00 00 00 00 00 00 00 00 00 00 00 00 00 00 00 00 00 00 89 03 00 00 00 00 00 00 00 00 00 00 00 00 00 00 00 00 00 00 00 00 00 00
   6.802000 1  300             Rx   d 8 00 00 00 00 00 00 00 00
   7.000000 CANFD   1 Rx 181 1 0 f 64 98 3A 50 46 5B 75 35 75 00 00 00 00 00 00 00 00 00 00 00 00 00 00 00 00 00 00 00 00 00 00 00 00 00 00 00 00 00 00 00 00 00 00 00 00 00 00 00 00 00 00 00 00 00 00 00 00 00 00 00 00 00 00 00 00
   7.000300 CANFD   1 Rx 182 1 0 f 8 04 79 00 00 00 00 00 00
   7.000500 1  183             Rx   d 8 6E 04 01 00 5D 03 00 00
   7.001000 CANFD   1 Rx 184 1 0 f 16 01 80 00 80 10 27 00 00 00 00 00 00 00 00 00 00
   7.001500 CANFD   1 Rx 2A0 1 0 f 64 34 00 C6 04 00 00 00 00 00 00 00 00 00 00 00 00 00 00 00 00 00 00 00 00 00 00 00 00 00 00 00 00 00 00 00 00 00 00 00 00 8F 03 00 00 00 00 00 00 00 00 00 00 00 00 00 00 00 00 00 00 00 00 00 00
   7.002000 1  300             Rx   d 8 00 00 00 00 00 00 00 00
   7.002500 1  185             Rx   d 8 1D 03 66 05 00 00 00 00
   7.003000 1  186             Rx   d 8 F2 1C 01 00 43 02 00 00
   7.003500 1  310             Tx   d 8 80 00 00 00 00 00 00 00
   7.200000 CANFD   1 Rx 181 1 0 f 64 98 3A 50 46 5A 75 34 75 00 00 00 00 00 00 00 00 00 00 00 00 00 00 00 00 00 00 00 00 00 00 00 00 00 00 00 00 00 00 00 00 00 00 00 00 00 00 00 00 00 00 00 00 00 00 00 00 00 00 00 00 00 00 00 00
   7.200300 CANFD   1 Rx 182 1 0 f 8 05 79 00 00 00 00 00 00
   7.200500 1  183             Rx   d 8 9B 04 01 00 63 03 00 00
   7.201000 CANFD   1 Rx 184 1 0 f 16 01 80 00 80 1B 27 00 00 00 00 00 00 00 00 00 00
   7.201500 CANFD   1 Rx 2A0 1 0 f 64 3E 00 D3 04 00 00 00 00 00 00 00 00 00 00 00 00 00 00 00 00 00 00 00 00 00 00 00 00 00 00 00 00 00 00 00 00 00 00 00 00 95 03 00 00 00 00 00 00 00 00 00 00 00 00 00 00 00 00 00 00 00 00 00 00
   7.202000 1  300             Rx   d 8 00 00 00 00 00 00 00 00
   7.400000 CANFD   1 Rx 181 1 0 f 64 98 3A 50 46 58 75 33 75 00 00 00 00 00 00 00 00 00 00 00 00 00 00 00 00 00 00 00 00 00 00 00 00 00 00 00 00 00 00 00 00 00 00 00 00 00 00 00 00 00 00 00 00 00 00 00 00 00 00 00 00 00 00 00 00
   7.400300 CANFD   1 Rx 182 1 0 f 8 06 79 00 00 00 00 00 00
   7.400500 1  183             Rx   d 8 CB 04 01 00 69 03 00 00
   7.401000 CANFD   1 Rx 184 1 0 f 16 02 80 00 80 FB 26 00 00 00 00 00 00 00 00 00 00
   7.401500 CANFD   1 Rx 2A0 1 0 f 64 49 00 DD 04 00 00 00 00 00 00 00 00 00 00 00 00 00 00 00 00 00 00 00 00 00 00 00 00 00 00 00 00 00 00 00 00 00 00 00 00 9B 03 00 00 00 00 00 00 00 00 00 00 00 00 00 00 00 00 00 00 00 00 00 00
   7.402000 1  300             Rx   d 8 00 00 00 00 00 00 00 00
   7.502500 1  185             Rx   d 8 1C 03 82 05 00 00 00 00
   7.503000 1  186             Rx   d 8 C5 0C 01 00 42 02 00 00
   7.503500 1  310             Tx   d 8 80 00 00 00 00 00 00 00
   7.600000 CANFD   1 Rx 181 1 0 f 64 98 3A 50 46 56 75 32 75 00 00 00 00 00 00 00 00 00 00 00 00 00 00 00 00 00 00 00 00 00 00 00 00 00 00 00 00 00 00 00 00 00 00 00 00 00 00 00 00 00 00 00 00 00 00 00 00 00 00 00 00 00 00 00 00
   7.600300 CANFD   1 Rx 182 1 0 f 8 08 79 00 00 00 00 00 00
   7.600500 1  183             Rx   d 8 FD 04 01 00 6E 03 00 00
   7.601000 CANFD   1 Rx 184 1 0 f 16 02 80 00 80 28 27 00 00 00 00 00 00 00 00 00 00
   7.601500 CANFD   1 Rx 2A0 1 0 f 64 54 00 E5 04 00 00 00 00 00 00 00 00 00 00 00 00 00 00 00 00 00 00 00 00 00 00 00 00 00 00 00 00 00 00 00 00 00 00 00 00 A0 03 00 00 00 00 00 00 00 00 00 00 00 00 00 00 00 00 00 00 00 00 00 00
   7.602000 1  300             Rx   d 8 00 00 00 00 00 00 00 00
   7.800000 CANFD   1 Rx 181 1 0 f 64 98 3A 50 46 54 75 30 75 00 00 00 00 00 00 00 00 00 00 00 00 00 00 00 00 00 00 00 00 00 00 00 00 00 00 00 00 00 00 00 00 00 00 00 00 00 00 00 00 00 00 00 00 00 00 00 00 00 00 00 00 00 00 00 00
   7.800300 CANFD   1 Rx 182 1 0 f 8 09 79 00 00 00 00 00 00
   7.800500 1  183             Rx   d 8 32 05 01 00 74 03 00 00
   7.801000 CANFD   1 Rx 184 1 0 f 16 03 80 00 80 FF 26 00 00 00 00 00 00 00 00 00 00
   7.801500 CANFD   1 Rx 2A0 1 0 f 64 60 00 EA 04 00 00 00 00 00 00 00 00 00 00 00 00 00 00 00 00 00 00 00 00 00 00 00 00 00 00 00 00 00 00 00 00 00 00 00 00 A6 03 00 00 00 00 00 00 00 00 00 00 00 00 00 00 00 00 00 00 00 00 00 00
   7.802000 1  300             Rx   d 8 00 00 00 00 00 00 00 00
   8.000000 CANFD   1 Rx 181 1 0 f 64 98 3A 50 46 52 75 2F 75 00 00 00 00 00 00 00 00 00 00 00 00 00 00 00 00 00 00 00 00 00 00 00 00 00 00 00 00 00 00 00 00 00 00 00 00 00 00 00 00 00 00 00 00 00 00 00 00 00 00 00 00 00 00 00 00
   8.000300 CANFD   1 Rx 182 1 0 f 8 0B 79 00 00 00 00 00 00
   8.000500 1  183             Rx   d 8 6A 05 01 00 79 03 00 00
   8.001000 CANFD   1 Rx 184 1 0 f 16 03 80 00 80 10 27 00 00 00 00 00 00 00 00 00 00
   8.001500 CANFD   1 Rx 2A0 1 0 f 64 6C 00 E7 04 00 00 00 00 00 00 00 00 00 00 00 00 00 00 00 00 00 00 00 00 00 00 00 00 00 00 00 00 00 00 00 00 00 00 00 00 AB 03 00 00 00 00 00 00 00 00 00 00 00 00 00 00 00 00 00 00 00 00 00 00
   8.002000 1  300             Rx   d 8 00 00 00 00 00 00 00 00
   8.002500 1  185             Rx   d 8 1C 03 87 05 00 00 00 00
   8.003000 1  186             Rx   d 8 92 FA 00 00 42 02 00 00
   8.003500 1  310             Tx   d 8 80 00 00 00 00 00 00 00
   8.200000 CANFD   1 Rx 181 1 0 f 64 98 3A 50 46 50 75 2E 75 00 00 00 00 00 00 00 00 00 00 00 00 00 00 00 00 00 00 00 00 00 00 00 00 00 00 00 00 00 00 00 00 00 00 00 00 00 00 00 00 00 00 00 00 00 00 00 00 00 00 00 00 00 00 00 00
   8.200300 CANFD   1 Rx 182 1 0 f 8 0E 79 00 00 00 00 00 00
   8.200500 1  183             Rx   d 8 EE 04 02 00 7F 03 00 00
   8.201000 CANFD   1 Rx 184 1 0 f 16 04 80 00 80 25 27 00 00 00 00 00 00 00 00 00 00
   8.201500 CANFD   1 Rx 2A0 1 0 f 64 79 00 E9 04 00 00 00 00 00 00 00 00 00 00 00 00 00 00 00 00 00 00 00 00 00 00 00 00 00 00 00 00 00 00 00 00 00 00 00 00 B1 03 00 00 00 00 00 00 00 00 00 00 00 00 00 00 00 00 00 00 00 00 00 00
   8.202000 1  300             Rx   d 8 00 00 00 00 00 00 00 00
   8.400000 CANFD   1 Rx 181 1 0 f 64 98 3A 50 46 4D 75 2D 75 00 00 00 00 00 00 00 00 00 00 00 00 00 00 00 00 00 00 00 00 00 00 00 00 00 00 00 00 00 00 00 00 00 00 00 00 00 00 00 00 00 00 00 00 00 00 00 00 00 00 00 00 00 00 00 00
   8.400300 CANFD   1 Rx 182 1 0 f 8 10 79 00 00 00 00 00 00
   8.400500 1  183             Rx   d 8 16 05 02 00 84 03 00 00
   8.401000 CANFD   1 Rx 184 1 0 f 16 05 80 00 80 EA 26 00 00 00 00 00 00 00 00 00 00
   8.401500 CANFD   1 Rx 2A0 1 0 f 64 86 00 EC 04 00 00 00 00 00 00 00 00 00 00 00 00 00 00 00 00 00 00 00 00 00 00 00 00 00 00 00 00 00 00 00 00 00 00 00 00 B6 03 00 00 00 00 00 00 00 00 00 00 00 00 00 00 00 00 00 00 00 00 00 00
   8.402000 1  300             Rx   d 8 00 00 00 00 00 00 00 00
   8.502500 1  185             Rx   d 8 1C 03 8E 05 00 00 00 00
   8.503000 1  186             Rx   d 8 2A E0 00 00 41 02 00 00
   8.503500 1  310             Tx   d 8 80 00 00 00 00 00 00 00
   8.600000 CANFD   1 Rx 181 1 0 f 64 98 3A 50 46 4B 75 2C 75 00 00 00 00 00 00 00 00 00 00 00 00 00 00 00 00 00 00 00 00 00 00 00 00 00 00 00 00 00 00 00 00 00 00 00 00 00 00 00 00 00 00 00 00 00 00 00 00 00 00 00 00 00 00 00 00
   8.600300 CANFD   1 Rx 182 1 0 f 8 13 79 00 00 00 00 00 00
   8.600500 1  183             Rx   d 8 3F 05 02 00 89 03 00 00
   8.601000 CANFD   1 Rx 184 1 0 f 16 05 80 00 80 3A 27 00 00 00 00 00 00 00 00 00 00
   8.601500 CANFD   1 Rx 2A0 1 0 f 64 94 00 EF 04 00 00 00 00 00 00 00 00 00 00 00 00 00 00 00 00 00 00 00 00 00 00 00 00 00 00 00 00 00 00 00 00 00 00 00 00 BB 03 00 00 00 00 00 00 00 00 00 00 00 00 00 00 00 00 00 00 00 00 00 00
   8.602000 1  300             Rx   d 8 00 00 00 00 00 00 00 00
   8.800000 CANFD   1 Rx 181 1 0 f 64 98 3A 50 46 48 75 2A 75 00 00 00 00 00 00 00 00 00 00 00 00 00 00 00 00 00 00 00 00 00 00 00 00 00 00 00 00 00 00 00 00 00 00 00 00 00 00 00 00 00 00 00 00 00 00 00 00 00 00 00 00 00 00 00 00
   8.800300 CANFD   1 Rx 182 1 0 f 8 16 79 00 00 00 00 00 00
   8.800500 1  183             Rx   d 8 69 05 02 00 8F 03 00 00
   8.801000 CANFD   1 Rx 184 1 0 f 16 06 80 00 80 F3 26 00 00 00 00 00 00 00 00 00 00
   8.801500 CANFD   1 Rx 2A0 1 0 f 64 A2 00 F1 04 00 00 00 00 00 00 00 00 00 00 00 00 00 00 00 00 00 00 00 00 00 00 00 00 00 00 00 00 00 00 00 00 00 00 00 00 C1 03 00 00 00 00 00 00 00 00 00 00 00 00 00 00 00 00 00 00 00 00 00 00
   8.802000 1  300             Rx   d 8 00 00 00 00 00 00 00 00
   9.000000 CANFD   1 Rx 181 1 0 f 64 98 3A 50 46 45 75 29 75 00 00 00 00 00 00 00 00 00 00 00 00 00 00 00 00 00 00 00 00 00 00 00 00 00 00 00 00 00 00 00 00 00 00 00 00 00 00 00 00 00 00 00 00 00 00 00 00 00 00 00 00 00 00 00 00
   9.000300 CANFD   1 Rx 182 1 0 f 8 18 79 00 00 00 00 00 00
   9.000500 1  183             Rx   d 8 94 05 02 00 94 03 00 00
   9.001000 CANFD   1 Rx 184 1 0 f 16 07 80 00 80 10 27 00 00 00 00 00 00 00 00 00 00
   9.001500 CANFD   1 Rx 2A0 1 0 f 64 B0 00 F1 04 00 00 00 00 00 00 00 00 00 00 00 00 00 00 00 00 00 00 00 00 00 00 00 00 00 00 00 00 00 00 00 00 00 00 00 00 C6 03 00 00 00 00 00 00 00 00 00 00 00 00 00 00 00 00 00 00 00 00 00 00
   9.002000 1  300             Rx   d 8 00 00 00 00 00 00 00 00
   9.002500 1  185             Rx   d 8 1B 03 91 05 00 00 00 00
   9.003000 1  186             Rx   d 8 52 CA 00 00 41 02 00 00
   9.003500 1  310             Tx   d 8 80 00 00 00 00 00 00 00
   9.200000 CANFD   1 Rx 181 1 0 f 64 98 3A 50 46 43 75 28 75 00 00 00 00 00 00 00 00 00 00 00 00 00 00 00 00 00 00 00 00 00 00 00 00 00 00 00 00 00 00 00 00 00 00 00 00 00 00 00 00 00 00 00 00 00 00 00 00 00 00 00 00 00 00 00 00
   9.200300 CANFD   1 Rx 182 1 0 f 8 1B 79 00 00 00 00 00 00
   9.200500 1  183             Rx   d 8 C0 05 02 00 99 03 00 00
   9.201000 CANFD   1 Rx 184 1 0 f 16 08 80 00 80 32 27 00 00 00 00 00 00 00 00 00 00
   9.201500 CANFD   1 Rx 2A0 1 0 f 64 BF 00 EF 04 00 00 00 00 00 00 00 00 00 00 00 00 00 00 00 00 00 00 00 00 00 00 00 00 00 00 00 00 00 00 00 00 00 00 00 00 CB 03 00 00 00 00 00 00 00 00 00 00 00 00 00 00 00 00 00 00 00 00 00 00
   9.202000 1  300             Rx   d 8 00 00 00 00 00 00 00 00
   9.400000 CANFD   1 Rx 181 1 0 f 64 98 3A 50 46 40 75 27 75 00 00 00 00 00 00 00 00 00 00 00 00 00 00 00 00 00 00 00 00 00 00 00 00 00 00 00 00 00 00 00 00 00 00 00 00 00 00 00 00 00 00 00 00 00 00 00 00 00 00 00 00 00 00 00 00
   9.400300 CANFD   1 Rx 182 1 0 f 8 1E 79 00 00 00 00 00 00
   9.400500 1  183             Rx   d 8 EC 05 02 00 9E 03 00 00
   9.401000 CANFD   1 Rx 184 1 0 f 16 09 80 00 80 D5 26 00 00 00 00 00 00 00 00 00 00
   9.401500 CANFD   1 Rx 2A0 1 0 f 64 CD 00 EC 04 00 00 00 00 00 00 00 00 00 00 00 00 00 00 00 00 00 00 00 00 00 00 00 00 00 00 00 00 00 00 00 00 00 00 00 00 D0 03 00 00 00 00 00 00 00 00 00 00 00 00 00 00 00 00 00 00 00 00 00 00
   9.402000 1  300             Rx   d 8 00 00 00 00 00 00 00 00
   9.502500 1  185             Rx   d 8 1B 03 8B 05 00 00 00 00
   9.503000 1  186             Rx   d 8 9E AC 00 00 41 02 00 00
   9.503500 1  310             Tx   d 8 80 00 00 00 00 00 00 00
   9.600000 CANFD   1 Rx 181 1 0 f 64 98 3A 50 46 3D 75 26 75 00 00 00 00 00 00 00 00 00 00 00 00 00 00 00 00 00 00 00 00 00 00 00 00 00 00 00 00 00 00 00 00 00 00 00 00 00 00 00 00 00 00 00 00 00 00 00 00 00 00 00 00 00 00 00 00
   9.600300 CANFD   1 Rx 182 1 0 f 8 20 79 00 00 00 00 00 00
   9.600500 1  183             Rx   d 8 68 05 03 00 A3 03 00 00
   9.601000 CANFD   1 Rx 184 1 0 f 16 0A 80 00 80 4F 27 00 00 00 00 00 00 00 00 00 00
   9.601500 CANFD   1 Rx 2A0 1 0 f 64 DC 00 E9 04 00 00 00 00 00 00 00 00 00 00 00 00 00 00 00 00 00 00 00 00 00 00 00 00 00 00 00 00 00 00 00 00 00 00 00 00 D5 03 00 00 00 00 00 00 00 00 00 00 00 00 00 00 00 00 00 00 00 00 00 00
   9.602000 1  300             Rx   d 8 00 00 00 00 00 00 00 00
   9.800000 CANFD   1 Rx 181 1 0 f 64 98 3A 50 46 3A 75 25 75 00 00 00 00 00 00 00 00 00 00 00 00 00 00 00 00 00 00 00 00 00 00 00 00 00 00 00 00 00 00 00 00 00 00 00 00 00 00 00 00 00 00 00 00 00 00 00 00 00 00 00 00 00 00 00 00
   9.800300 CANFD   1 Rx 182 1 0 f 8 23 79 00 00 00 00 00 00
   9.800500 1  183             Rx   d 8 89 05 03 00 A8 03 00 00
   9.801000 CANFD   1 Rx 184 1 0 f 16 0C 80 00 80 E7 26 00 00 00 00 00 00 00 00 00 00
   9.801500 CANFD   1 Rx 2A0 1 0 f 64 EB 00 E7 04 00 00 00 00 00 00 00 00 00 00 00 00 00 00 00 00 00 00 00 00 00 00 00 00 00 00 00 00 00 00 00 00 00 00 00 00 DA 03 00 00 00 00 00 00 00 00 00 00 00 00 00 00 00 00 00 00 00 00 00 00
   9.802000 1  300             Rx   d 8 00 00 00 00 00 00 00 00
   10.000000 CANFD   1 Rx 181 1 0 f 64 98 3A 50 46 37 75 24 75 00 00 00 00 00 00 00 00 00 00 00 00 00 00 00 00 00 00 00 00 00 00 00 00 00 00 00 00 00 00 00 00 00 00 00 00 00 00 00 00 00 00 00 00 00 00 00 00 00 00 00 00 00 00 00 00
   10.000300 CANFD   1 Rx 182 1 0 f 8 25 79 00 00 00 00 00 00
   10.000500 1  183             Rx   d 8 AA 05 03 00 AD 03 00 00
   10.001000 CANFD   1 Rx 184 1 0 f 16 0D 80 00 80 10 27 00 00 00 00 00 00 00 00 00 00
   10.001500 CANFD   1 Rx 2A0 1 0 f 64 FA 00 E7 04 00 00 00 00 00 00 00 00 00 00 00 00 00 00 00 00 00 00 00 00 00 00 00 00 00 00 00 00 00 00 00 00 00 00 00 00 DF 03 00 00 00 00 00 00 00 00 00 00 00 00 00 00 00 00 00 00 00 00 00 00
   10.002000 1  300             Rx   d 8 00 00 00 00 00 00 00 00
   10.002500 1  185             Rx   d 8 1B 03 87 05 00 00 00 00
   10.003000 1  186             Rx   d 8 3D 90 00 00 41 02 00 00
   10.003500 1  310             Tx   d 8 80 00 00 00 00 00 00 00
   10.200000 CANFD   1 Rx 181 1 0 f 64 98 3A 50 46 34 75 22 75 00 00 00 00 00 00 00 00 00 00 00 00 00 00 00 00 00 00 00 00 00 00 00 00 00 00 00 00 00 00 00 00 00 00 00 00 00 00 00 00 00 00 00 00 00 00 00 00 00 00 00 00 00 00 00 00
   10.200300 CANFD   1 Rx 182 1 0 f 8 27 79 00 00 00 00 00 00
   10.200500 1  183             Rx   d 8 CB 05 03 00 B1 03 00 00
   10.201000 CANFD   1 Rx 184 1 0 f 16 0E 80 00 80 3F 27 00 00 00 00 00 00 00 00 00 00
   10.201500 CANFD   1 Rx 2A0 1 0 f 64 09 01 E8 04 00 00 00 00 00 00 00 00 00 00 00 00 00 00 00 00 00 00 00 00 00 00 00 00 00 00 00 00 00 00 00 00 00 00 00 00 E3 03 00 00 00 00 00 00 00 00 00 00 00 00 00 00 00 00 00 00 00 00 00 00
   10.202000 1  300             Rx   d 8 00 00 00 00 00 00 00 00
   10.400000 CANFD   1 Rx 181 1 0 f 64 98 3A 50 46 31 75 21 75 00 00 00 00 00 00 00 00 00 00 00 00 00 00 00 00 00 00 00 00 00 00 00 00 00 00 00 00 00 00 00 00 00 00 00 00 00 00 00 00 00 00 00 00 00 00 00 00 00 00 00 00 00 00 00 00
   10.400300 CANFD   1 Rx 182 1 0 f 8 29 79 00 00 00 00 00 00
   10.400500 1  183             Rx   d 8 EC 05 03 00 B6 03 00 00
   10.401000 CANFD   1 Rx 184 1 0 f 16 10 80 00 80 C0 26 00 00 00 00 00 00 00 00 00 00
   10.401500 CANFD   1 Rx 2A0 1 0 f 64 18 01 EB 04 00 00 00 00 00 00 00 00 00 00 00 00 00 00 00 00 00 00 00 00 00 00 00 00 00 00 00 00 00 00 00 00 00 00 00 00 E8 03 00 00 00 00 00 00 00 00 00 00 00 00 00 00 00 00 00 00 00 00 00 00
   10.402000 1  300             Rx   d 8 00 00 00 00 00 00 00 00
   10.502500 1  185             Rx   d 8 1B 03 8C 05 00 00 00 00
   10.503000 1  186             Rx   d 8 15 75 00 00 41 02 00 00
   10.503500 1  310             Tx   d 8 80 00 00 00 00 00 00 00
   10.600000 CANFD   1 Rx 181 1 0 f 64 98 3A 50 46 2E 75 20 75 00 00 00 00 00 00 00 00 00 00 00 00 00 00 00 00 00 00 00 00 00 00 00 00 00 00 00 00 00 00 00 00 00 00 00 00 00 00 00 00 00 00 00 00 00 00 00 00 00 00 00 00 00 00 00 00
   10.600300 CANFD   1 Rx 182 1 0 f 8 2A 79 00 00 00 00 00 00
   10.600500 1  183             Rx   d 8 0D 06 03 00 BB 03 00 00
   10.601000 CANFD   1 Rx 184 1 0 f 16 12 80 00 80 64 27 00 00 00 00 00 00 00 00 00 00
   10.601500 CANFD   1 Rx 2A0 1 0 f 64 27 01 EE 04 00 00 00 00 00 00 00 00 00 00 00 00 00 00 00 00 00 00 00 00 00 00 00 00 00 00 00 00 00 00 00 00 00 00 00 00 ED 03 00 00 00 00 00 00 00 00 00 00 00 00 00 00 00 00 00 00 00 00 00 00
   10.602000 1  300             Rx   d 8 00 00 00 00 00 00 00 00
   10.800000 CANFD   1 Rx 181 1 0 f 64 98 3A 50 46 2B 75 1F 75 00 00 00 00 00 00 00 00 00 00 00 00 00 00 00 00 00 00 00 00 00 00 00 00 00 00 00 00 00 00 00 00 00 00 00 00 00 00 00 00 00 00 00 00 00 00 00 00 00 00 00 00 00 00 00 00
   10.800300 CANFD   1 Rx 182 1 0 f 8 2B 79 00 00 00 00 00 00
   10.800500 1  183             Rx   d 8 2D 06 03 00 BF 03 00 00
   10.801000 CANFD   1 Rx 184 1 0 f 16 13 80 00 80 D9 26 00 00 00 00 00 00 00 00 00 00
   10.801500 CANFD   1 Rx 2A0 1 0 f 64 35 01 F0 04 00 00 00 00 00 00 00 00 00 00 00 00 00 00 00 00 00 00 00 00 00 00 00 00 00 00 00 00 00 00 00 00 00 00 00 00 F1 03 00 00 00 00 00 00 00 00 00 00 00 00 00 00 00 00 00 00 00 00 00 00
   10.802000 1  300             Rx   d 8 00 00 00 00 00 00 00 00
   11.000000 CANFD   1 Rx 181 1 0 f 64 98 3A 50 46 28 75 1E 75 00 00 00 00 00 00 00 00 00 00 00 00 00 00 00 00 00 00 00 00 00 00 00 00 00 00 00 00 00 00 00 00 00 00 00 00 00 00 00 00 00 00 00 00 00 00 00 00 00 00 00 00 00 00 00 00
   11.000300 CANFD   1 Rx 182 1 0 f 8 2C 79 00 00 00 00 00 00
   11.000500 1  183             Rx   d 8 4D 06 03 00 C4 03 00 00
   11.001000 CANFD   1 Rx 184 1 0 f 16 15 80 00 80 10 27 00 00 00 00 00 00 00 00 00 00
   11.001500 CANFD   1 Rx 2A0 1 0 f 64 44 01 F1 04 00 00 00 00 00 00 00 00 00 00 00 00 00 00 00 00 00 00 00 00 00 00 00 00 00 00 00 00 00 00 00 00 00 00 00 00 F6 03 00 00 00 00 00 00 00 00 00 00 00 00 00 00 00 00 00 00 00 00 00 00
   11.002000 1  300             Rx   d 8 00 00 00 00 00 00 00 00
   11.002500 1  185             Rx   d 8 1B 03 91 05 00 00 00 00
   11.003000 1  186             Rx   d 8 6D 54 00 00 42 02 00 00
   11.003500 1  310             Tx   d 8 80 00 00 00 00 00 00 00
   11.200000 CANFD   1 Rx 181 1 0 f 64 98 3A 50 46 25 75 1D 75 00 00 00 00 00 00 00 00 00 00 00 00 00 00 00 00 00 00 00 00 00 00 00 00 00 00 00 00 00 00 00 00 00 00 00 00 00 00 00 00 00 00 00 00 00 00 00 00 00 00 00 00 00 00 00 00
   11.200300 CANFD   1 Rx 182 1 0 f 8 2C 79 00 00 00 00 00 00
   11.200500 1  183             Rx   d 8 C3 05 04 00 C8 03 00 00
   11.201000 CANFD   1 Rx 184 1 0 f 16 17 80 00 80 4C 27 00 00 00 00 00 00 00 00 00 00
   11.201500 CANFD   1 Rx 2A0 1 0 f 64 52 01 F0 04 00 00 00 00 00 00 00 00 00 00 00 00 00 00 00 00 00 00 00 00 00 00 00 00 00 00 00 00 00 00 00 00 00 00 00 00 FA 03 00 00 00 00 00 00 00 00 00 00 00 00 00 00 00 00 00 00 00 00 00 00
   11.202000 1  300             Rx   d 8 00 00 00 00 00 00 00 00
   11.400000 CANFD   1 Rx 181 1 0 f 64 98 3A 50 46 22 75 1C 75 00 00 00 00 00 00 00 00 00 00 00 00 00 00 00 00 00 00 00 00 00 00 00 00 00 00 00 00 00 00 00 00 00 00 00 00 00 00 00 00 00 00 00 00 00 00 00 00 00 00 00 00 00 00 00 00
   11.400300 CANFD   1 Rx 182 1 0 f 8 2C 79 00 00 00 00 00 00
   11.400500 1  183             Rx   d 8 DB 05 04 00 CD 03 00 00
   11.401000 CANFD   1 Rx 184 1 0 f 16 19 80 00 80 AB 26 00 00 00 00 00 00 00 00 00 00
   11.401500 CANFD   1 Rx 2A0 1 0 f 64 60 01 EE 04 00 00 00 00 00 00 00 00 00 00 00 00 00 00 00 00 00 00 00 00 00 00 00 00 00 00 00 00 00 00 00 00 00 00 00 00 FF 03 00 00 00 00 00 00 00 00 00 00 00 00 00 00 00 00 00 00 00 00 00 00
   11.402000 1  300             Rx   d 8 00 00 00 00 00 00 00 00
   11.502500 1  185             Rx   d 8 1A 03 8C 05 00 00 00 00
   11.503000 1  186             Rx   d 8 7E 3B 00 00 42 02 00 00
   11.503500 1  310             Tx   d 8 80 00 00 00 00 00 00 00
   11.600000 CANFD   1 Rx 181 1 0 f 64 98 3A 50 46 1F 75 1C 75 00 00 00 00 00 00 00 00 00 00 00 00 00 00 00 00 00 00 00 00 00 00 00 00 00 00 00 00 00 00 00 00 00 00 00 00 00 00 00 00 00 00 00 00 00 00 00 00 00 00 00 00 00 00 00 00
   11.600300 CANFD   1 Rx 182 1 0 f 8 2B 79 00 00 00 00 00 00
   11.600500 1  183             Rx   d 8 F2 05 04 00 D1 03 00 00
   11.601000 CANFD   1 Rx 184 1 0 f 16 1B 80 00 80 78 27 00 00 00 00 00 00 00 00 00 00
   11.601500 CANFD   1 Rx 2A0 1 0 f 64 6E 01 EB 04 00 00 00 00 00 00 00 00 00 00 00 00 00 00 00 00 00 00 00 00 00 00 00 00 00 00 00 00 00 00 00 00 00 00 00 00 03 04 00 00 00 00 00 00 00 00 00 00 00 00 00 00 00 00 00 00 00 00 00 00
   11.602000 1  300             Rx   d 8 00 00 00 00 00 00 00 00
   11.800000 CANFD   1 Rx 181 1 0 f 64 98 3A 50 46 1D 75 1B 75 00 00 00 00 00 00 00 00 00 00 00 00 00 00 00 00 00 00 00 00 00 00 00 00 00 00 00 00 00 00 00 00 00 00 00 00 00 00 00 00 00 00 00 00 00 00 00 00 00 00 00 00 00 00 00 00
   11.800300 CANFD   1 Rx 182 1 0 f 8 2A 79 00 00 00 00 00 00
   11.800500 1  183             Rx   d 8 09 06 04 00 D5 03 00 00
   11.801000 CANFD   1 Rx 184 1 0 f 16 1D 80 00 80 CD 26 00 00 00 00 00 00 00 00 00 00
   11.801500 CANFD   1 Rx 2A0 1 0 f 64 7B 01 E8 04 00 00 00 00 00 00 00 00 00 00 00 00 00 00 00 00 00 00 00 00 00 00 00 00 00 00 00 00 00 00 00 00 00 00 00 00 07 04 00 00 00 00 00 00 00 00 00 00 00 00 00 00 00 00 00 00 00 00 00 00
   11.802000 1  300             Rx   d 8 00 00 00 00 00 00 00 00
   12.000000 CANFD   1 Rx 181 1 0 f 64 98 3A 50 46 1A 75 1A 75 00 00 00 00 00 00 00 00 00 00 00 00 00 00 00 00 00 00 00 00 00 00 00 00 00 00 00 00 00 00 00 00 00 00 00 00 00 00 00 00 00 00 00 00 00 00 00 00 00 00 00 00 00 00 00 00
   12.000300 CANFD   1 Rx 182 1 0 f 8 29 79 00 00 00 00 00 00
   12.000500 1  183             Rx   d 8 1E 06 04 00 D9 03 00 00
   12.001000 CANFD   1 Rx 184 1 0 f 16 1F 80 00 80 10 27 00 00 00 00 00 00 00 00 00 00
   12.001500 CANFD   1 Rx 2A0 1 0 f 64 88 01 E7 04 00 00 00 00 00 00 00 00 00 00 00 00 00 00 00 00 00 00 00 00 00 00 00 00 00 00 00 00 00 00 00 00 00 00 00 00 0B 04 00 00 00 00 00 00 00 00 00 00 00 00 00 00 00 00 00 00 00 00 00 00
   12.002000 1  300             Rx   d 8 00 00 00 00 00 00 00 00
   12.002500 1  185             Rx   d 8 1A 03 87 05 00 00 00 00
   12.003000 1  186             Rx   d 8 2A 1E 00 00 43 02 00 00
   12.003500 1  310             Tx   d 8 80 00 00 00 00 00 00 00
   12.200000 CANFD   1 Rx 181 1 0 f 64 98 3A 50 46 17 75 19 75 00 00 00 00 00 00 00 00 00 00 00 00 00 00 00 00 00 00 00 00 00 00 00 00 00 00 00 00 00 00 00 00 00 00 00 00 00 00 00 00 00 00 00 00 00 00 00 00 00 00 00 00 00 00 00 00
   12.200300 CANFD   1 Rx 182 1 0 f 8 27 79 00 00 00 00 00 00
   12.200500 1  183             Rx   d 8 33 06 04 00 DE 03 00 00
   12.201000 CANFD   1 Rx 184 1 0 f 16 21 80 00 80 57 27 00 00 00 00 00 00 00 00 00 00
   12.201500 CANFD   1 Rx 2A0 1 0 f 64 94 01 E8 04 00 00 00 00 00 00 00 00 00 00 00 00 00 00 00 00 00 00 00 00 00 00 00 00 00 00 00 00 00 00 00 00 00 00 00 00 10 04 00 00 00 00 00 00 00 00 00 00 00 00 00 00 00 00 00 00 00 00 00 00
   12.202000 1  300             Rx   d 8 00 00 00 00 00 00 00 00
   12.400000 CANFD   1 Rx 181 1 0 f 64 98 3A 50 46 15 75 18 75 00 00 00 00 00 00 00 00 00 00 00 00 00 00 00 00 00 00 00 00 00 00 00 00 00 00 00 00 00 00 00 00 00 00 00 00 00 00 00 00 00 00 00 00 00 00 00 00 00 00 00 00 00 00 00 00
   12.400300 CANFD   1 Rx 182 1 0 f 8 26 79 00 00 00 00 00 00
   12.400500 1  183             Rx   d 8 47 06 04 00 E2 03 00 00
   12.401000 CANFD   1 Rx 184 1 0 f 16 23 80 00 80 99 26 00 00 00 00 00 00 00 00 00 00
   12.401500 CANFD   1 Rx 2A0 1 0 f 64 A0 01 EA 04 00 00 00 00 00 00 00 00 00 00 00 00 00 00 00 00 00 00 00 00 00 00 00 00 00 00 00 00 00 00 00 00 00 00 00 00 14 04 00 00 00 00 00 00 00 00 00 00 00 00 00 00 00 00 00 00 00 00 00 00
   12.402000 1  300             Rx   d 8 00 00 00 00 00 00 00 00
   12.502500 1  185             Rx   d 8 1A 03 8B 05 00 00 00 00
   12.503000 1  186             Rx   d 8 EB 04 00 00 44 02 00 00
   12.503500 1  310             Tx   d 8 80 00 00 00 00 00 00 00
   12.600000 CANFD   1 Rx 181 1 0 f 64 98 3A 50 46 12 75 18 75 00 00 00 00 00 00 00 00 00 00 00 00 00 00 00 00 00 00 00 00 00 00 00 00 00 00 00 00 00 00 00 00 00 00 00 00 00 00 00 00 00 00 00 00 00 00 00 00 00 00 00 00 00 00 00 00
   12.600300 CANFD   1 Rx 182 1 0 f 8 23 79 00 00 00 00 00 00
   12.600500 1  183             Rx   d 8 5B 06 04 00 E6 03 00 00
   12.601000 CANFD   1 Rx 184 1 0 f 16 26 80 00 80 8A 27 00 00 00 00 00 00 00 00 00 00
   12.601500 CANFD   1 Rx 2A0 1 0 f 64 AB 01 ED 04 00 00 00 00 00 00 00 00 00 00 00 00 00 00 00 00 00 00 00 00 00 00 00 00 00 00 00 00 00 00 00 00 00 00 00 00 18 04 00 00 00 00 00 00 00 00 00 00 00 00 00 00 00 00 00 00 00 00 00 00
   12.602000 1  300             Rx   d 8 00 00 00 00 00 00 00 00
   12.800000 CANFD   1 Rx 181 1 0 f 64 98 3A 50 46 10 75 17 75 00 00 00 00 00 00 00 00 00 00 00 00 00 00 00 00 00 00 00 00 00 00 00 00 00 00 00 00 00 00 00 00 00 00 00 00 00 00 00 00 00 00 00 00 00 00 00 00 00 00 00 00 00 00 00 00
   12.800300 CANFD   1 Rx 182 1 0 f 8 21 79 00 00 00 00 00 00
   12.800500 1  183             Rx   d 8 6D 06 04 00 EA 03 00 00
   12.801000 CANFD   1 Rx 184 1 0 f 16 28 80 00 80 C3 26 00 00 00 00 00 00 00 00 00 00
   12.801500 CANFD   1 Rx 2A0 1 0 f 64 B6 01 EF 04 00 00 00 00 00 00 00 00 00 00 00 00 00 00 00 00 00 00 00 00 00 00 00 00 00 00 00 00 00 00 00 00 00 00 00 00 1C 04 00 00 00 00 00 00 00 00 00 00 00 00 00 00 00 00 00 00 00 00 00 00
   12.802000 1  300             Rx   d 8 00 00 00 00 00 00 00 00
   13.000000 CANFD   1 Rx 181 1 0 f 64 98 3A 50 46 0E 75 16 75 00 00 00 00 00 00 00 00 00 00 00 00 00 00 00 00 00 00 00 00 00 00 00 00 00 00 00 00 00 00 00 00 00 00 00 00 00 00 00 00 00 00 00 00 00 00 00 00 00 00 00 00 00 00 00 00
   13.000300 CANFD   1 Rx 182 1 0 f 8 1E 79 00 00 00 00 00 00
   13.000500 1  183             Rx   d 8 7E 06 04 00 EE 03 00 00
   13.001000 CANFD   1 Rx 184 1 0 f 16 2B 80 00 80 10 27 00 00 00 00 00 00 00 00 00 00
   13.001500 CANFD   1 Rx 2A0 1 0 f 64 C0 01 F1 04 00 00 00 00 00 00 00 00 00 00 00 00 00 00 00 00 00 00 00 00 00 00 00 00 00 00 00 00 00 00 00 00 00 00 00 00 20 04 00 00 00 00 00 00 00 00 00 00 00 00 00 00 00 00 00 00 00 00 00 00
   13.002000 1  300             Rx   d 8 00 00 00 00 00 00 00 00
   13.002500 1  185             Rx   d 8 19 03 91 05 00 00 00 00
   13.003000 1  186             Rx   d 8 00 00 00 00 45 02 00 00
   13.003500 1  310             Tx   d 8 A0 00 00 00 00 00 00 00
   13.200000 CANFD   1 Rx 181 1 0 f 64 98 3A 51 46 0B 75 16 75 00 00 00 00 00 00 00 00 00 00 00 00 00 00 00 00 00 00 00 00 00 00 00 00 00 00 00 00 00 00 00 00 00 00 00 00 00 00 00 00 00 00 00 00 00 00 00 00 00 00 00 00 00 00 00 00
   13.200300 CANFD   1 Rx 182 1 0 f 8 1C 79 00 00 00 00 00 00
   13.200500 1  183             Rx   d 8 04 06 05 00 F2 03 00 00
   13.201000 CANFD   1 Rx 184 1 0 f 16 2D 80 00 80 61 27 00 00 00 00 00 00 00 00 00 00
   13.201500 CANFD   1 Rx 2A0 1 0 f 64 C9 01 F1 04 00 00 00 00 00 00 00 00 00 00 00 00 00 00 00 00 00 00 00 00 00 00 00 00 00 00 00 00 00 00 00 00 00 00 00 00 24 04 00 00 00 00 00 00 00 00 00 00 00 00 00 00 00 00 00 00 00 00 00 00
   13.202000 1  300             Rx   d 8 00 00 00 00 00 00 00 00
   13.400000 CANFD   1 Rx 181 1 0 f 64 99 3A 53 46 0A 75 15 75 00 00 00 00 00 00 00 00 00 00 00 00 00 00 00 00 00 00 00 00 00 00 00 00 00 00 00 00 00 00 00 00 00 00 00 00 00 00 00 00 00 00 00 00 00 00 00 00 00 00 00 00 00 00 00 00
   13.400300 CANFD   1 Rx 182 1 0 f 8 19 79 00 00 00 00 00 00
   13.400500 1  183             Rx   d 8 10 06 05 00 F5 03 00 00
   13.401000 CANFD   1 Rx 184 1 0 f 16 30 80 00 80 8B 26 00 00 00 00 00 00 00 00 00 00
   13.401500 CANFD   1 Rx 2A0 1 0 f 64 D2 01 EF 04 00 00 00 00 00 00 00 00 00 00 00 00 00 00 00 00 00 00 00 00 00 00 00 00 00 00 00 00 00 00 00 00 00 00 00 00 27 04 00 00 00 00 00 00 00 00 00 00 00 00 00 00 00 00 00 00 00 00 00 00
   13.402000 1  300             Rx   d 8 00 00 00 00 00 00 00 00
   13.502500 1  185             Rx   d 8 19 03 8E 05 00 00 00 00
   13.503000 1  186             Rx   d 8 00 00 00 00 45 02 00 00
   13.503500 1  310             Tx   d 8 A0 00 00 00 00 00 00 00
   13.600000 CANFD   1 Rx 181 1 0 f 64 9A 3A 57 46 08 75 15 75 00 00 00 00 00 00 00 00 00 00 00 00 00 00 00 00 00 00 00 00 00 00 00 00 00 00 00 00 00 00 00 00 00 00 00 00 00 00 00 00 00 00 00 00 00 00 00 00 00 00 00 00 00 00 00 00
   13.600300 CANFD   1 Rx 182 1 0 f 8 16 79 00 00 00 00 00 00
   13.600500 1  183             Rx   d 8 1B 06 05 00 F9 03 00 00
   13.601000 CANFD   1 Rx 184 1 0 f 16 32 80 00 80 97 27 00 00 00 00 00 00 00 00 00 00
   13.601500 CANFD   1 Rx 2A0 1 0 f 64 D9 01 EC 04 00 00 00 00 00 00 00 00 00 00 00 00 00 00 00 00 00 00 00 00 00 00 00 00 00 00 00 00 00 00 00 00 00 00 00 00 2B 04 00 00 00 00 00 00 00 00 00 00 00 00 00 00 00 00 00 00 00 00 00 00
   13.602000 1  300             Rx   d 8 00 00 00 00 00 00 00 00
   13.800000 CANFD   1 Rx 181 1 0 f 64 9A 3A 5B 46 06 75 14 75 00 00 00 00 00 00 00 00 00 00 00 00 00 00 00 00 00 00 00 00 00 00 00 00 00 00 00 00 00 00 00 00 00 00 00 00 00 00 00 00 00 00 00 00 00 00 00 00 00 00 00 00 00 00 00 00
   13.800300 CANFD   1 Rx 182 1 0 f 8 13 79 00 00 00 00 00 00
   13.800500 1  183             Rx   d 8 24 06 05 00 FD 03 00 00
   13.801000 CANFD   1 Rx 184 1 0 f 16 35 80 00 80 BB 26 00 00 00 00 00 00 00 00 00 00
   13.801500 CANFD   1 Rx 2A0 1 0 f 64 E0 01 E9 04 00 00 00 00 00 00 00 00 00 00 00 00 00 00 00 00 00 00 00 00 00 00 00 00 00 00 00 00 00 00 00 00 00 00 00 00 2F 04 00 00 00 00 00 00 00 00 00 00 00 00 00 00 00 00 00 00 00 00 00 00
   13.802000 1  300             Rx   d 8 00 00 00 00 00 00 00 00
   14.000000 CANFD   1 Rx 181 1 0 f 64 9A 3A 60 46 04 75 14 75 00 00 00 00 00 00 00 00 00 00 00 00 00 00 00 00 00 00 00 00 00 00 00 00 00 00 00 00 00 00 00 00 00 00 00 00 00 00 00 00 00 00 00 00 00 00 00 00 00 00 00 00 00 00 00 00
   14.000300 CANFD   1 Rx 182 1 0 f 8 11 79 00 00 00 00 00 00
   14.000500 1  183             Rx   d 8 2C 06 05 00 01 04 00 00
   14.001000 CANFD   1 Rx 184 1 0 f 16 38 80 00 80 10 27 00 00 00 00 00 00 00 00 00 00
   14.001500 CANFD   1 Rx 2A0 1 0 f 64 E6 01 E7 04 00 00 00 00 00 00 00 00 00 00 00 00 00 00 00 00 00 00 00 00 00 00 00 00 00 00 00 00 00 00 00 00 00 00 00 00 33 04 00 00 00 00 00 00 00 00 00 00 00 00 00 00 00 00 00 00 00 00 00 00
   14.002000 1  300             Rx   d 8 00 00 00 00 00 00 00 00
   14.002500 1  185             Rx   d 8 19 03 87 05 00 00 00 00
   14.003000 1  186             Rx   d 8 00 00 00 00 46 02 00 00
   14.003500 1  310             Tx   d 8 A0 00 00 00 00 00 00 00
   14.200000 CANFD   1 Rx 181 1 0 f 64 9A 3A 64 46 03 75 13 75 00 00 00 00 00 00 00 00 00 00 00 00 00 00 00 00 00 00 00 00 00 00 00 00 00 00 00 00 00 00 00 00 00 00 00 00 00 00 00 00 00 00 00 00 00 00 00 00 00 00 00 00 00 00 00 00
   14.200300 CANFD   1 Rx 182 1 0 f 8 0E 79 00 00 00 00 00 00
   14.200500 1  183             Rx   d 8 33 06 05 00 04 04 00 00
   14.201000 CANFD   1 Rx 184 1 0 f 16 3A 80 00 80 67 27 00 00 00 00 00 00 00 00 00 00
   14.201500 CANFD   1 Rx 2A0 1 0 f 64 EB 01 E7 04 00 00 00 00 00 00 00 00 00 00 00 00 00 00 00 00 00 00 00 00 00 00 00 00 00 00 00 00 00 00 00 00 00 00 00 00 36 04 00 00 00 00 00 00 00 00 00 00 00 00 00 00 00 00 00 00 00 00 00 00
   14.202000 1  300             Rx   d 8 00 00 00 00 00 00 00 00
   14.400000 CANFD   1 Rx 181 1 0 f 64 9A 3A 69 46 02 75 13 75 00 00 00 00 00 00 00 00 00 00 00 00 00 00 00 00 00 00 00 00 00 00 00 00 00 00 00 00 00 00 00 00 00 00 00 00 00 00 00 00 00 00 00 00 00 00 00 00 00 00 00 00 00 00 00 00
   14.400300 CANFD   1 Rx 182 1 0 f 8 0C 79 00 00 00 00 00 00
   14.400500 1  183             Rx   d 8 39 06 05 00 08 04 00 00
   14.401000 CANFD   1 Rx 184 1 0 f 16 3D 80 00 80 83 26 00 00 00 00 00 00 00 00 00 00
   14.401500 CANFD   1 Rx 2A0 1 0 f 64 EF 01 E8 04 00 00 00 00 00 00 00 00 00 00 00 00 00 00 00 00 00 00 00 00 00 00 00 00 00 00 00 00 00 00 00 00 00 00 00 00 3A 04 00 00 00 00 00 00 00 00 00 00 00 00 00 00 00 00 00 00 00 00 00 00
   14.402000 1  300             Rx   d 8 00 00 00 00 00 00 00 00
   14.502500 1  185             Rx   d 8 19 03 8A 05 00 00 00 00
   14.503000 1  186             Rx   d 8 00 00 00 00 46 02 00 00
   14.503500 1  310             Tx   d 8 A0 00 00 00 00 00 00 00
   14.600000 CANFD   1 Rx 181 1 0 f 64 9A 3A 6C 46 01 75 13 75 00 00 00 00 00 00 00 00 00 00 00 00 00 00 00 00 00 00 00 00 00 00 00 00 00 00 00 00 00 00 00 00 00 00 00 00 00 00 00 00 00 00 00 00 00 00 00 00 00 00 00 00 00 00 00 00
   14.600300 CANFD   1 Rx 182 1 0 f 8 0A 79 00 00 00 00 00 00
   14.600500 1  183             Rx   d 8 3D 06 05 00 0C 04 00 00
   14.601000 CANFD   1 Rx 184 1 0 f 16 40 80 00 80 9E 27 00 00 00 00 00 00 00 00 00 00
   14.601500 CANFD   1 Rx 2A0 1 0 f 64 F2 01 EB 04 00 00 00 00 00 00 00 00 00 00 00 00 00 00 00 00 00 00 00 00 00 00 00 00 00 00 00 00 00 00 00 00 00 00 00 00 3E 04 00 00 00 00 00 00 00 00 00 00 00 00 00 00 00 00 00 00 00 00 00 00
   14.602000 1  300             Rx   d 8 00 00 00 00 00 00 00 00
   14.800000 CANFD   1 Rx 181 1 0 f 64 99 3A 6F 46 00 75 12 75 00 00 00 00 00 00 00 00 00 00 00 00 00 00 00 00 00 00 00 00 00 00 00 00 00 00 00 00 00 00 00 00 00 00 00 00 00 00 00 00 00 00 00 00 00 00 00 00 00 00 00 00 00 00 00 00
   14.800300 CANFD   1 Rx 182 1 0 f 8 08 79 00 00 00 00 00 00
   14.800500 1  183             Rx   d 8 3F 06 05 00 0F 04 00 00
   14.801000 CANFD   1 Rx 184 1 0 f 16 43 80 00 80 B8 26 00 00 00 00 00 00 00 00 00 00
   14.801500 CANFD   1 Rx 2A0 1 0 f 64 F3 01 EE 04 00 00 00 00 00 00 00 00 00 00 00 00 00 00 00 00 00 00 00 00 00 00 00 00 00 00 00 00 00 00 00 00 00 00 00 00 41 04 00 00 00 00 00 00 00 00 00 00 00 00 00 00 00 00 00 00 00 00 00 00
   14.802000 1  300             Rx   d 8 00 00 00 00 00 00 00 00
   15.000000 CANFD   1 Rx 181 1 0 f 64 98 3A 6F 46 FF 74 12 75 00 00 00 00 00 00 00 00 00 00 00 00 00 00 00 00 00 00 00 00 00 00 00 00 00 00 00 00 00 00 00 00 00 00 00 00 00 00 00 00 00 00 00 00 00 00 00 00 00 00 00 00 00 00 00 00
   15.000300 CANFD   1 Rx 182 1 0 f 8 06 79 00 00 00 00 00 00
   15.000500 1  183             Rx   d 8 40 06 05 00 12 04 00 00
   15.001000 CANFD   1 Rx 184 1 0 f 16 45 80 00 80 10 27 00 00 00 00 00 00 00 00 00 00
   15.001500 CANFD   1 Rx 2A0 1 0 f 64 F4 01 F0 04 00 00 00 00 00 00 00 00 00 00 00 00 00 00 00 00 00 00 00 00 00 00 00 00 00 00 00 00 00 00 00 00 00 00 00 00 44 04 00 00 00 00 00 00 00 00 00 00 00 00 00 00 00 00 00 00 00 00 00 00
   15.002000 1  300             Rx   d 8 00 00 00 00 00 00 00 00
   15.002500 1  185             Rx   d 8 19 03 90 05 00 00 00 00
   15.003000 1  186             Rx   d 8 00 00 00 00 47 02 00 00
   15.003500 1  310             Tx   d 8 A0 00 00 00 00 00 00 00
   15.200000 CANFD   1 Rx 181 1 0 f 64 98 3A 6F 46 FF 74 12 75 00 00 00 00 00 00 00 00 00 00 00 00 00 00 00 00 00 00 00 00 00 00 00 00 00 00 00 00 00 00 00 00 00 00 00 00 00 00 00 00 00 00 00 00 00 00 00 00 00 00 00 00 00 00 00 00
   15.200300 CANFD   1 Rx 182 1 0 f 8 05 79 00 00 00 00 00 00
   15.200500 1  183             Rx   d 8 40 06 05 00 16 04 00 00
   15.201000 CANFD   1 Rx 184 1 0 f 16 48 80 00 80 68 27 00 00 00 00 00 00 00 00 00 00
   15.201500 CANFD   1 Rx 2A0 1 0 f 64 F4 01 F1 04 00 00 00 00 00 00 00 00 00 00 00 00 00 00 00 00 00 00 00 00 00 00 00 00 00 00 00 00 00 00 00 00 00 00 00 00 48 04 00 00 00 00 00 00 00 00 00 00 00 00 00 00 00 00 00 00 00 00 00 00
   15.202000 1  300             Rx   d 8 00 00 00 00 00 00 00 00
   15.400000 CANFD   1 Rx 181 1 0 f 64 98 3A 6F 46 FE 74 12 75 00 00 00 00 00 00 00 00 00 00 00 00 00 00 00 00 00 00 00 00 00 00 00 00 00 00 00 00 00 00 00 00 00 00 00 00 00 00 00 00 00 00 00 00 00 00 00 00 00 00 00 00 00 00 00 00
   15.400300 CANFD   1 Rx 182 1 0 f 8 04 79 00 00 00 00 00 00
   15.400500 1  183             Rx   d 8 40 06 05 00 19 04 00 00
   15.401000 CANFD   1 Rx 184 1 0 f 16 4B 80 00 80 81 26 00 00 00 00 00 00 00 00 00 00
   15.401500 CANFD   1 Rx 2A0 1 0 f 64 F4 01 F0 04 00 00 00 00 00 00 00 00 00 00 00 00 00 00 00 00 00 00 00 00 00 00 00 00 00 00 00 00 00 00 00 00 00 00 00 00 4B 04 00 00 00 00 00 00 00 00 00 00 00 00 00 00 00 00 00 00 00 00 00 00
   15.402000 1  300             Rx   d 8 00 00 00 00 00 00 00 00
   15.502500 1  185             Rx   d 8 18 03 8F 05 00 00 00 00
   15.503000 1  186             Rx   d 8 00 00 00 00 47 02 00 00
   15.503500 1  310             Tx   d 8 A0 00 00 00 00 00 00 00
   15.600000 CANFD   1 Rx 181 1 0 f 64 98 3A 6F 46 FE 74 12 75 00 00 00 00 00 00 00 00 00 00 00 00 00 00 00 00 00 00 00 00 00 00 00 00 00 00 00 00 00 00 00 00 00 00 00 00 00 00 00 00 00 00 00 00 00 00 00 00 00 00 00 00 00 00 00 00
   15.600300 CANFD   1 Rx 182 1 0 f 8 04 79 00 00 00 00 00 00
   15.600500 1  183             Rx   d 8 40 06 05 00 1D 04 00 00
   15.601000 CANFD   1 Rx 184 1 0 f 16 4E 80 01 80 9F 27 00 00 00 00 00 00 00 00 00 00
   15.601500 CANFD   1 Rx 2A0 1 0 f 64 F4 01 EE 04 00 00 00 00 00 00 00 00 00 00 00 00 00 00 00 00 00 00 00 00 00 00 00 00 00 00 00 00 00 00 00 00 00 00 00 00 4F 04 00 00 00 00 00 00 00 00 00 00 00 00 00 00 00 00 00 00 00 00 00 00
   15.602000 1  300             Rx   d 8 00 00 00 00 00 00 00 00
   15.800000 CANFD   1 Rx 181 1 0 f 64 98 3A 6F 46 FE 74 12 75 00 00 00 00 00 00 00 00 00 00 00 00 00 00 00 00 00 00 00 00 00 00 00 00 00 00 00 00 00 00 00 00 00 00 00 00 00 00 00 00 00 00 00 00 00 00 00 00 00 00 00 00 00 00 00 00
   15.800300 CANFD   1 Rx 182 1 0 f 8 04 79 00 00 00 00 00 00
   15.800500 1  183             Rx   d 8 40 06 05 00 20 04 00 00
   15.801000 CANFD   1 Rx 184 1 0 f 16 51 80 01 80 B8 26 00 00 00 00 00 00 00 00 00 00
   15.801500 CANFD   1 Rx 2A0 1 0 f 64 F4 01 EB 04 00 00 00 00 00 00 00 00 00 00 00 00 00 00 00 00 00 00 00 00 00 00 00 00 00 00 00 00 00 00 00 00 00 00 00 00 52 04 00 00 00 00 00 00 00 00 00 00 00 00 00 00 00 00 00 00 00 00 00 00
   15.802000 1  300             Rx   d 8 00 00 00 00 00 00 00 00
   16.000000 CANFD   1 Rx 181 1 0 f 64 98 3A 6F 46 FE 74 12 75 00 00 00 00 00 00 00 00 00 00 00 00 00 00 00 00 00 00 00 00 00 00 00 00 00 00 00 00 00 00 00 00 00 00 00 00 00 00 00 00 00 00 00 00 00 00 00 00 00 00 00 00 00 00 00 00
   16.000300 CANFD   1 Rx 182 1 0 f 8 04 79 00 00 00 00 00 00
   16.000500 1  183             Rx   d 8 40 06 05 00 23 04 00 00
   16.001000 CANFD   1 Rx 184 1 0 f 16 53 80 01 80 10 27 00 00 00 00 00 00 00 00 00 00
   16.001500 CANFD   1 Rx 2A0 1 0 f 64 F4 01 E8 04 00 00 00 00 00 00 00 00 00 00 00 00 00 00 00 00 00 00 00 00 00 00 00 00 00 00 00 00 00 00 00 00 00 00 00 00 55 04 00 00 00 00 00 00 00 00 00 00 00 00 00 00 00 00 00 00 00 00 00 00
   16.002000 1  300             Rx   d 8 00 00 00 00 00 00 00 00
   16.002500 1  185             Rx   d 8 18 03 88 05 00 00 00 00
   16.003000 1  186             Rx   d 8 00 00 00 00 47 02 00 00
   16.003500 1  310             Tx   d 8 A0 00 00 00 00 00 00 00
   16.200000 CANFD   1 Rx 181 1 0 f 64 98 3A 6F 46 FF 74 12 75 00 00 00 00 00 00 00 00 00 00 00 00 00 00 00 00 00 00 00 00 00 00 00 00 00 00 00 00 00 00 00 00 00 00 00 00 00 00 00 00 00 00 00 00 00 00 00 00 00 00 00 00 00 00 00 00
   16.200300 CANFD   1 Rx 182 1 0 f 8 05 79 00 00 00 00 00 00
   16.200500 1  183             Rx   d 8 40 06 05 00 26 04 00 00
   16.201000 CANFD   1 Rx 184 1 0 f 16 56 80 02 80 68 27 00 00 00 00 00 00 00 00 00 00
   16.201500 CANFD   1 Rx 2A0 1 0 f 64 F4 01 E7 04 00 00 00 00 00 00 00 00 00 00 00 00 00 00 00 00 00 00 00 00 00 00 00 00 00 00 00 00 00 00 00 00 00 00 00 00 58 04 00 00 00 00 00 00 00 00 00 00 00 00 00 00 00 00 00 00 00 00 00 00
   16.202000 1  300             Rx   d 8 00 00 00 00 00 00 00 00
   16.400000 CANFD   1 Rx 181 1 0 f 64 98 3A 6F 46 FF 74 12 75 00 00 00 00 00 00 00 00 00 00 00 00 00 00 00 00 00 00 00 00 00 00 00 00 00 00 00 00 00 00 00 00 00 00 00 00 00 00 00 00 00 00 00 00 00 00 00 00 00 00 00 00 00 00 00 00
   16.400300 CANFD   1 Rx 182 1 0 f 8 06 79 00 00 00 00 00 00
   16.400500 1  183             Rx   d 8 40 06 05 00 29 04 00 00
   16.401000 CANFD   1 Rx 184 1 0 f 16 59 80 03 80 81 26 00 00 00 00 00 00 00 00 00 00
   16.401500 CANFD   1 Rx 2A0 1 0 f 64 F4 01 E8 04 00 00 00 00 00 00 00 00 00 00 00 00 00 00 00 00 00 00 00 00 00 00 00 00 00 00 00 00 00 00 00 00 00 00 00 00 5B 04 00 00 00 00 00 00 00 00 00 00 00 00 00 00 00 00 00 00 00 00 00 00
   16.402000 1  300             Rx   d 8 00 00 00 00 00 00 00 00
   16.502500 1  185             Rx   d 8 18 03 89 05 00 00 00 00
   16.503000 1  186             Rx   d 8 00 00 00 00 47 02 00 00
   16.503500 1  310             Tx   d 8 A0 00 00 00 00 00 00 00
   16.600000 CANFD   1 Rx 181 1 0 f 64 98 3A 6F 46 00 75 12 75 00 00 00 00 00 00 00 00 00 00 00 00 00 00 00 00 00 00 00 00 00 00 00 00 00 00 00 00 00 00 00 00 00 00 00 00 00 00 00 00 00 00 00 00 00 00 00 00 00 00 00 00 00 00 00 00
   16.600300 CANFD   1 Rx 182 1 0 f 8 08 79 00 00 00 00 00 00
   16.600500 1  183             Rx   d 8 40 06 05 00 2D 04 00 00
   16.601000 CANFD   1 Rx 184 1 0 f 16 5B 80 04 80 9F 27 00 00 00 00 00 00 00 00 00 00
   16.601500 CANFD   1 Rx 2A0 1 0 f 64 F4 01 EA 04 00 00 00 00 00 00 00 00 00 00 00 00 00 00 00 00 00 00 00 00 00 00 00 00 00 00 00 00 00 00 00 00 00 00 00 00 5F 04 00 00 00 00 00 00 00 00 00 00 00 00 00 00 00 00 00 00 00 00 00 00
   16.602000 1  300             Rx   d 8 00 00 00 00 00 00 00 00
   16.800000 CANFD   1 Rx 181 1 0 f 64 98 3A 6F 46 01 75 13 75 00 00 00 00 00 00 00 00 00 00 00 00 00 00 00 00 00 00 00 00 00 00 00 00 00 00 00 00 00 00 00 00 00 00 00 00 00 00 00 00 00 00 00 00 00 00 00 00 00 00 00 00 00 00 00 00
   16.800300 CANFD   1 Rx 182 1 0 f 8 0A 79 00 00 00 00 00 00
   16.800500 1  183             Rx   d 8 40 06 05 00 30 04 00 00
   16.801000 CANFD   1 Rx 184 1 0 f 16 5E 80 05 80 B8 26 00 00 00 00 00 00 00 00 00 00
   16.801500 CANFD   1 Rx 2A0 1 0 f 64 F4 01 ED 04 00 00 00 00 00 00 00 00 00 00 00 00 00 00 00 00 00 00 00 00 00 00 00 00 00 00 00 00 00 00 00 00 00 00 00 00 62 04 00 00 00 00 00 00 00 00 00 00 00 00 00 00 00 00 00 00 00 00 00 00
   16.802000 1  300             Rx   d 8 00 00 00 00 00 00 00 00
   17.000000 CANFD   1 Rx 181 1 0 f 64 98 3A 6F 46 02 75 13 75 00 00 00 00 00 00 00 00 00 00 00 00 00 00 00 00 00 00 00 00 00 00 00 00 00 00 00 00 00 00 00 00 00 00 00 00 00 00 00 00 00 00 00 00 00 00 00 00 00 00 00 00 00 00 00 00
   17.000300 CANFD   1 Rx 182 1 0 f 8 0C 79 00 00 00 00 00 00
   17.000500 1  183             Rx   d 8 40 06 05 00 33 04 00 00
   17.001000 CANFD   1 Rx 184 1 0 f 16 60 80 06 80 10 27 00 00 00 00 00 00 00 00 00 00
   17.001500 CANFD   1 Rx 2A0 1 0 f 64 F4 01 EF 04 00 00 00 00 00 00 00 00 00 00 00 00 00 00 00 00 00 00 00 00 00 00 00 00 00 00 00 00 00 00 00 00 00 00 00 00 65 04 00 00 00 00 00 00 00 00 00 00 00 00 00 00 00 00 00 00 00 00 00 00
   17.002000 1  300             Rx   d 8 00 00 00 00 00 00 00 00
   17.002500 1  185             Rx   d 8 18 03 8F 05 00 00 00 00
   17.003000 1  186             Rx   d 8 00 00 00 00 46 02 00 00
   17.003500 1  310             Tx   d 8 A0 00 00 00 00 00 00 00
   17.200000 CANFD   1 Rx 181 1 0 f 64 98 3A 6F 46 03 75 13 75 00 00 00 00 00 00 00 00 00 00 00 00 00 00 00 00 00 00 00 00 00 00 00 00 00 00 00 00 00 00 00 00 00 00 00 00 00 00 00 00 00 00 00 00 00 00 00 00 00 00 00 00 00 00 00 00
   17.200300 CANFD   1 Rx 182 1 0 f 8 0E 79 00 00 00 00 00 00
   17.200500 1  183             Rx   d 8 40 06 05 00 36 04 00 00
   17.201000 CANFD   1 Rx 184 1 0 f 16 63 80 07 80 68 27 00 00 00 00 00 00 00 00 00 00
   17.201500 CANFD   1 Rx 2A0 1 0 f 64 F4 01 F1 04 00 00 00 00 00 00 00 00 00 00 00 00 00 00 00 00 00 00 00 00 00 00 00 00 00 00 00 00 00 00 00 00 00 00 00 00 68 04 00 00 00 00 00 00 00 00 00 00 00 00 00 00 00 00 00 00 00 00 00 00
   17.202000 1  300             Rx   d 8 00 00 00 00 00 00 00 00
   17.400000 CANFD   1 Rx 181 1 0 f 64 98 3A 6F 46 04 75 14 75 00 00 00 00 00 00 00 00 00 00 00 00 00 00 00 00 00 00 00 00 00 00 00 00 00 00 00 00 00 00 00 00 00 00 00 00 00 00 00 00 00 00 00 00 00 00 00 00 00 00 00 00 00 00 00 00
   17.400300 CANFD   1 Rx 182 1 0 f 8 10 79 00 00 00 00 00 00
   17.400500 1  183             Rx   d 8 40 06 05 00 39 04 00 00
   17.401000 CANFD   1 Rx 184 1 0 f 16 65 80 08 80 81 26 00 00 00 00 00 00 00 00 00 00
   17.401500 CANFD   1 Rx 2A0 1 0 f 64 F4 01 F1 04 00 00 00 00 00 00 00 00 00 00 00 00 00 00 00 00 00 00 00 00 00 00 00 00 00 00 00 00 00 00 00 00 00 00 00 00 6B 04 00 00 00 00 00 00 00 00 00 00 00 00 00 00 00 00 00 00 00 00 00 00
   17.402000 1  300             Rx   d 8 00 00 00 00 00 00 00 00
   17.502500 1  185             Rx   d 8 17 03 90 05 00 00 00 00
   17.503000 1  186             Rx   d 8 00 00 00 00 46 02 00 00
   17.503500 1  310             Tx   d 8 A0 00 00 00 00 00 00 00
   17.600000 CANFD   1 Rx 181 1 0 f 64 98 3A 6F 46 06 75 14 75 00 00 00 00 00 00 00 00 00 00 00 00 00 00 00 00 00 00 00 00 00 00 00 00 00 00 00 00 00 00 00 00 00 00 00 00 00 00 00 00 00 00 00 00 00 00 00 00 00 00 00 00 00 00 00 00
   17.600300 CANFD   1 Rx 182 1 0 f 8 13 79 00 00 00 00 00 00
   17.600500 1  183             Rx   d 8 40 06 05 00 3B 04 00 00
   17.601000 CANFD   1 Rx 184 1 0 f 16 68 80 0A 80 9F 27 00 00 00 00 00 00 00 00 00 00
   17.601500 CANFD   1 Rx 2A0 1 0 f 64 F4 01 EF 04 00 00 00 00 00 00 00 00 00 00 00 00 00 00 00 00 00 00 00 00 00 00 00 00 00 00 00 00 00 00 00 00 00 00 00 00 6D 04 00 00 00 00 00 00 00 00 00 00 00 00 00 00 00 00 00 00 00 00 00 00
   17.602000 1  300             Rx   d 8 00 00 00 00 00 00 00 00
   17.800000 CANFD   1 Rx 181 1 0 f 64 98 3A 6F 46 08 75 15 75 00 00 00 00 00 00 00 00 00 00 00 00 00 00 00 00 00 00 00 00 00 00 00 00 00 00 00 00 00 00 00 00 00 00 00 00 00 00 00 00 00 00 00 00 00 00 00 00 00 00 00 00 00 00 00 00
   17.800300 CANFD   1 Rx 182 1 0 f 8 16 79 00 00 00 00 00 00
   17.800500 1  183             Rx   d 8 40 06 05 00 3E 04 00 00
   17.801000 CANFD   1 Rx 184 1 0 f 16 6A 80 0B 80 B8 26 00 00 00 00 00 00 00 00 00 00
   17.801500 CANFD   1 Rx 2A0 1 0 f 64 F4 01 EC 04 00 00 00 00 00 00 00 00 00 00 00 00 00 00 00 00 00 00 00 00 00 00 00 00 00 00 00 00 00 00 00 00 00 00 00 00 70 04 00 00 00 00 00 00 00 00 00 00 00 00 00 00 00 00 00 00 00 00 00 00
   17.802000 1  300             Rx   d 8 00 00 00 00 00 00 00 00
   18.000000 CANFD   1 Rx 181 1 0 f 64 98 3A 6F 46 09 75 15 75 00 00 00 00 00 00 00 00 00 00 00 00 00 00 00 00 00 00 00 00 00 00 00 00 00 00 00 00 00 00 00 00 00 00 00 00 00 00 00 00 00 00 00 00 00 00 00 00 00 00 00 00 00 00 00 00
   18.000300 CANFD   1 Rx 182 1 0 f 8 19 79 00 00 00 00 00 00
   18.000500 1  183             Rx   d 8 40 06 05 00 41 04 00 00
   18.001000 CANFD   1 Rx 184 1 0 f 16 6C 80 0D 80 10 27 00 00 00 00 00 00 00 00 00 00
   18.001500 CANFD   1 Rx 2A0 1 0 f 64 F4 01 E9 04 00 00 00 00 00 00 00 00 00 00 00 00 00 00 00 00 00 00 00 00 00 00 00 00 00 00 00 00 00 00 00 00 00 00 00 00 73 04 00 00 00 00 00 00 00 00 00 00 00 00 00 00 00 00 00 00 00 00 00 00
   18.002000 1  300             Rx   d 8 00 00 00 00 00 00 00 00
   18.002500 1  185             Rx   d 8 17 03 89 05 00 00 00 00
   18.003000 1  186             Rx   d 8 00 00 00 00 45 02 00 00
   18.003500 1  310             Tx   d 8 A0 00 00 00 00 00 00 00
   18.200000 CANFD   1 Rx 181 1 0 f 64 98 3A 6F 46 0B 75 16 75 00 00 00 00 00 00 00 00 00 00 00 00 00 00 00 00 00 00 00 00 00 00 00 00 00 00 00 00 00 00 00 00 00 00 00 00 00 00 00 00 00 00 00 00 00 00 00 00 00 00 00 00 00 00 00 00
   18.200300 CANFD   1 Rx 182 1 0 f 8 1B 79 00 00 00 00 00 00
   18.200500 1  183             Rx   d 8 40 06 05 00 44 04 00 00
   18.201000 CANFD   1 Rx 184 1 0 f 16 6F 80 0E 80 68 27 00 00 00 00 00 00 00 00 00 00
   18.201500 CANFD   1 Rx 2A0 1 0 f 64 F4 01 E7 04 00 00 00 00 00 00 00 00 00 00 00 00 00 00 00 00 00 00 00 00 00 00 00 00 00 00 00 00 00 00 00 00 00 00 00 00 76 04 00 00 00 00 00 00 00 00 00 00 00 00 00 00 00 00 00 00 00 00 00 00
   18.202000 1  300             Rx   d 8 00 00 00 00 00 00 00 00
   18.400000 CANFD   1 Rx 181 1 0 f 64 98 3A 6F 46 0D 75 16 75 00 00 00 00 00 00 00 00 00 00 00 00 00 00 00 00 00 00 00 00 00 00 00 00 00 00 00 00 00 00 00 00 00 00 00 00 00 00 00 00 00 00 00 00 00 00 00 00 00 00 00 00 00 00 00 00
   18.400300 CANFD   1 Rx 182 1 0 f 8 1E 79 00 00 00 00 00 00
   18.400500 1  183             Rx   d 8 40 06 05 00 47 04 00 00
   18.401000 CANFD   1 Rx 184 1 0 f 16 71 80 10 80 81 26 00 00 00 00 00 00 00 00 00 00
   18.401500 CANFD   1 Rx 2A0 1 0 f 64 F4 01 E7 04 00 00 00 00 00 00 00 00 00 00 00 00 00 00 00 00 00 00 00 00 00 00 00 00 00 00 00 00 00 00 00 00 00 00 00 00 79 04 00 00 00 00 00 00 00 00 00 00 00 00 00 00 00 00 00 00 00 00 00 00
   18.402000 1  300             Rx   d 8 00 00 00 00 00 00 00 00
   18.502500 1  185             Rx   d 8 17 03 88 05 00 00 00 00
   18.503000 1  186             Rx   d 8 00 00 00 00 45 02 00 00
   18.503500 1  310             Tx   d 8 A0 00 00 00 00 00 00 00
   18.600000 CANFD   1 Rx 181 1 0 f 64 98 3A 6F 46 10 75 17 75 00 00 00 00 00 00 00 00 00 00 00 00 00 00 00 00 00 00 00 00 00 00 00 00 00 00 00 00 00 00 00 00 00 00 00 00 00 00 00 00 00 00 00 00 00 00 00 00 00 00 00 00 00 00 00 00
   18.600300 CANFD   1 Rx 182 1 0 f 8 21 79 00 00 00 00 00 00
   18.600500 1  183             Rx   d 8 40 06 05 00 49 04 00 00
   18.601000 CANFD   1 Rx 184 1 0 f 16 73 80 12 80 9F 27 00 00 00 00 00 00 00 00 00 00
   18.601500 CANFD   1 Rx 2A0 1 0 f 64 F4 01 E9 04 00 00 00 00 00 00 00 00 00 00 00 00 00 00 00 00 00 00 00 00 00 00 00 00 00 00 00 00 00 00 00 00 00 00 00 00 7B 04 00 00 00 00 00 00 00 00 00 00 00 00 00 00 00 00 00 00 00 00 00 00
   18.602000 1  300             Rx   d 8 00 00 00 00 00 00 00 00
   18.800000 CANFD   1 Rx 181 1 0 f 64 98 3A 6F 46 12 75 18 75 00 00 00 00 00 00 00 00 00 00 00 00 00 00 00 00 00 00 00 00 00 00 00 00 00 00 00 00 00 00 00 00 00 00 00 00 00 00 00 00 00 00 00 00 00 00 00 00 00 00 00 00 00 00 00 00
   18.800300 CANFD   1 Rx 182 1 0 f 8 23 79 00 00 00 00 00 00
   18.800500 1  183             Rx   d 8 40 06 05 00 4C 04 00 00
   18.801000 CANFD   1 Rx 184 1 0 f 16 75 80 14 80 B8 26 00 00 00 00 00 00 00 00 00 00
   18.801500 CANFD   1 Rx 2A0 1 0 f 64 F4 01 EB 04 00 00 00 00 00 00 00 00 00 00 00 00 00 00 00 00 00 00 00 00 00 00 00 00 00 00 00 00 00 00 00 00 00 00 00 00 7E 04 00 00 00 00 00 00 00 00 00 00 00 00 00 00 00 00 00 00 00 00 00 00
   18.802000 1  300             Rx   d 8 00 00 00 00 00 00 00 00
   19.000000 CANFD   1 Rx 181 1 0 f 64 98 3A 6F 46 14 75 18 75 00 00 00 00 00 00 00 00 00 00 00 00 00 00 00 00 00 00 00 00 00 00 00 00 00 00 00 00 00 00 00 00 00 00 00 00 00 00 00 00 00 00 00 00 00 00 00 00 00 00 00 00 00 00 00 00
   19.000300 CANFD   1 Rx 182 1 0 f 8 25 79 00 00 00 00 00 00
   19.000500 1  183             Rx   d 8 40 06 05 00 4F 04 00 00
   19.001000 CANFD   1 Rx 184 1 0 f 16 77 80 16 80 10 27 00 00 00 00 00 00 00 00 00 00
   19.001500 CANFD   1 Rx 2A0 1 0 f 64 F4 01 EE 04 00 00 00 00 00 00 00 00 00 00 00 00 00 00 00 00 00 00 00 00 00 00 00 00 00 00 00 00 00 00 00 00 00 00 00 00 81 04 00 00 00 00 00 00 00 00 00 00 00 00 00 00 00 00 00 00 00 00 00 00
   19.002000 1  300             Rx   d 8 00 00 00 00 00 00 00 00
   19.002500 1  185             Rx   d 8 16 03 8E 05 00 00 00 00
   19.003000 1  186             Rx   d 8 F7 0A 00 00 44 02 00 00
   19.003500 1  310             Tx   d 8 A0 00 00 00 00 00 00 00
   19.200000 CANFD   1 Rx 181 1 0 f 64 98 3A 6F 46 17 75 19 75 00 00 00 00 00 00 00 00 00 00 00 00 00 00 00 00 00 00 00 00 00 00 00 00 00 00 00 00 00 00 00 00 00 00 00 00 00 00 00 00 00 00 00 00 00 00 00 00 00 00 00 00 00 00 00 00
   19.200300 CANFD   1 Rx 182 1 0 f 8 27 79 00 00 00 00 00 00
   19.200500 1  183             Rx   d 8 40 06 05 00 51 04 00 00
   19.201000 CANFD   1 Rx 184 1 0 f 16 78 80 18 80 68 27 00 00 00 00 00 00 00 00 00 00
   19.201500 CANFD   1 Rx 2A0 1 0 f 64 F4 01 F0 04 00 00 00 00 00 00 00 00 00 00 00 00 00 00 00 00 00 00 00 00 00 00 00 00 00 00 00 00 00 00 00 00 00 00 00 00 83 04 00 00 00 00 00 00 00 00 00 00 00 00 00 00 00 00 00 00 00 00 00 00
   19.202000 1  300             Rx   d 8 00 00 00 00 00 00 00 00
   19.400000 CANFD   1 Rx 181 1 0 f 64 98 3A 6F 46 1A 75 1A 75 00 00 00 00 00 00 00 00 00 00 00 00 00 00 00 00 00 00 00 00 00 00 00 00 00 00 00 00 00 00 00 00 00 00 00 00 00 00 00 00 00 00 00 00 00 00 00 00 00 00 00 00 00 00 00 00
   19.400300 CANFD   1 Rx 182 1 0 f 8 29 79 00 00 00 00 00 00
   19.400500 1  183             Rx   d 8 40 06 05 00 54 04 00 00
   19.401000 CANFD   1 Rx 184 1 0 f 16 7A 80 1A 80 81 26 00 00 00 00 00 00 00 00 00 00
   19.401500 CANFD   1 Rx 2A0 1 0 f 64 F4 01 F1 04 00 00 00 00 00 00 00 00 00 00 00 00 00 00 00 00 00 00 00 00 00 00 00 00 00 00 00 00 00 00 00 00 00 00 00 00 86 04 00 00 00 00 00 00 00 00 00 00 00 00 00 00 00 00 00 00 00 00 00 00
   19.402000 1  300             Rx   d 8 00 00 00 00 00 00 00 00
   19.502500 1  185             Rx   d 8 16 03 91 05 00 00 00 00
   19.503000 1  186             Rx   d 8 FD 22 00 00 43 02 00 00
   19.503500 1  310             Tx   d 8 A0 00 00 00 00 00 00 00
   19.600000 CANFD   1 Rx 181 1 0 f 64 98 3A 6F 46 1C 75 1B 75 00 00 00 00 00 00 00 00 00 00 00 00 00 00 00 00 00 00 00 00 00 00 00 00 00 00 00 00 00 00 00 00 00 00 00 00 00 00 00 00 00 00 00 00 00 00 00 00 00 00 00 00 00 00 00 00
   19.600300 CANFD   1 Rx 182 1 0 f 8 2A 79 00 00 00 00 00 00
   19.600500 1  183             Rx   d 8 40 06 05 00 56 04 00 00
   19.601000 CANFD   1 Rx 184 1 0 f 16 7C 80 1D 80 9F 27 00 00 00 00 00 00 00 00 00 00
   19.601500 CANFD   1 Rx 2A0 1 0 f 64 F4 01 F0 04 00 00 00 00 00 00 00 00 00 00 00 00 00 00 00 00 00 00 00 00 00 00 00 00 00 00 00 00 00 00 00 00 00 00 00 00 88 04 00 00 00 00 00 00 00 00 00 00 00 00 00 00 00 00 00 00 00 00 00 00
   19.602000 1  300             Rx   d 8 00 00 00 00 00 00 00 00
   19.800000 CANFD   1 Rx 181 1 0 f 64 98 3A 6F 46 1F 75 1B 75 00 00 00 00 00 00 00 00 00 00 00 00 00 00 00 00 00 00 00 00 00 00 00 00 00 00 00 00 00 00 00 00 00 00 00 00 00 00 00 00 00 00 00 00 00 00 00 00 00 00 00 00 00 00 00 00
   19.800300 CANFD   1 Rx 182 1 0 f 8 2B 79 00 00 00 00 00 00
   19.800500 1  183             Rx   d 8 40 06 05 00 59 04 00 00
   19.801000 CANFD   1 Rx 184 1 0 f 16 7D 80 1F 80 B8 26 00 00 00 00 00 00 00 00 00 00
   19.801500 CANFD   1 Rx 2A0 1 0 f 64 F4 01 ED 04 00 00 00 00 00 00 00 00 00 00 00 00 00 00 00 00 00 00 00 00 00 00 00 00 00 00 00 00 00 00 00 00 00 00 00 00 8B 04 00 00 00 00 00 00 00 00 00 00 00 00 00 00 00 00 00 00 00 00 00 00
   19.802000 1  300             Rx   d 8 00 00 00 00 00 00 00 00
   20.000000 CANFD   1 Rx 181 1 0 f 64 98 3A 6F 46 22 75 1C 75 00 00 00 00 00 00 00 00 00 00 00 00 00 00 00 00 00 00 00 00 00 00 00 00 00 00 00 00 00 00 00 00 00 00 00 00 00 00 00 00 00 00 00 00 00 00 00 00 00 00 00 00 00 00 00 00
   20.000300 CANFD   1 Rx 182 1 0 f 8 2C 79 00 00 00 00 00 00
   20.000500 1  183             Rx   d 8 40 06 05 00 5B 04 00 00
   20.001000 CANFD   1 Rx 184 1 0 f 16 7F 80 21 80 10 27 00 00 00 00 00 00 00 00 00 00
   20.001500 CANFD   1 Rx 2A0 1 0 f 64 F4 01 EA 04 00 00 00 00 00 00 00 00 00 00 00 00 00 00 00 00 00 00 00 00 00 00 00 00 00 00 00 00 00 00 00 00 00 00 00 00 8D 04 00 00 00 00 00 00 00 00 00 00 00 00 00 00 00 00 00 00 00 00 00 00
   20.002000 1  300             Rx   d 8 00 00 00 00 00 00 00 00
   20.002500 1  185             Rx   d 8 16 03 8A 05 00 00 00 00
   20.003000 1  186             Rx   d 8 A0 3D 00 00 42 02 00 00
   20.003500 1  310             Tx   d 8 B0 00 00 00 00 00 00 00
   20.200000 CANFD   1 Rx 181 1 0 f 64 98 3A 6F 46 25 75 1D 75 00 00 00 00 00 00 00 00 00 00 00 00 00 00 00 00 00 00 00 00 00 00 00 00 00 00 00 00 00 00 00 00 00 00 00 00 00 00 00 00 00 00 00 00 00 00 00 00 00 00 00 00 00 00 00 00
   20.200300 CANFD   1 Rx 182 1 0 f 8 2C 79 00 00 00 00 00 00
   20.200500 1  183             Rx   d 8 40 06 05 00 5E 04 00 00
   20.201000 CANFD   1 Rx 184 1 0 f 16 80 80 24 80 68 27 00 00 00 00 00 00 00 00 00 00
   20.201500 CANFD   1 Rx 2A0 1 0 f 64 F4 01 E8 04 00 00 00 00 00 00 00 00 00 00 00 00 00 00 00 00 00 00 00 00 00 00 00 00 00 00 00 00 00 00 00 00 00 00 00 00 90 04 00 00 00 00 00 00 00 00 00 00 00 00 00 00 00 00 00 00 00 00 00 00
   20.202000 1  300             Rx   d 8 00 00 00 00 00 00 00 00
   20.400000 CANFD   1 Rx 181 1 0 f 64 98 3A 6F 46 28 75 1E 75 00 00 00 00 00 00 00 00 00 00 00 00 00 00 00 00 00 00 00 00 00 00 00 00 00 00 00 00 00 00 00 00 00 00 00 00 00 00 00 00 00 00 00 00 00 00 00 00 00 00 00 00 00 00 00 00
   20.400300 CANFD   1 Rx 182 1 0 f 8 2C 79 00 00 00 00 00 00
   20.400500 1  183             Rx   d 8 40 06 05 00 60 04 00 00
   20.401000 CANFD   1 Rx 184 1 0 f 16 81 80 26 80 81 26 00 00 00 00 00 00 00 00 00 00
   20.401500 CANFD   1 Rx 2A0 1 0 f 64 F4 01 E7 04 00 00 00 00 00 00 00 00 00 00 00 00 00 00 00 00 00 00 00 00 00 00 00 00 00 00 00 00 00 00 00 00 00 00 00 00 92 04 00 00 00 00 00 00 00 00 00 00 00 00 00 00 00 00 00 00 00 00 00 00
   20.402000 1  300             Rx   d 8 00 00 00 00 00 00 00 00
   20.502500 1  185             Rx   d 8 16 03 87 05 00 00 00 00
   20.503000 1  186             Rx   d 8 0D 5D 00 00 42 02 00 00
   20.503500 1  310             Tx   d 8 A0 00 00 00 00 00 00 00
   20.600000 CANFD   1 Rx 181 1 0 f 64 98 3A 6F 46 2B 75 1F 75 00 00 00 00 00 00 00 00 00 00 00 00 00 00 00 00 00 00 00 00 00 00 00 00 00 00 00 00 00 00 00 00 00 00 00 00 00 00 00 00 00 00 00 00 00 00 00 00 00 00 00 00 00 00 00 00
   20.600300 CANFD   1 Rx 182 1 0 f 8 2B 79 00 00 00 00 00 00
   20.600500 1  183             Rx   d 8 40 06 05 00 63 04 00 00
   20.601000 CANFD   1 Rx 184 1 0 f 16 82 80 29 80 9F 27 00 00 00 00 00 00 00 00 00 00
   20.601500 CANFD   1 Rx 2A0 1 0 f 64 F4 01 E8 04 00 00 00 00 00 00 00 00 00 00 00 00 00 00 00 00 00 00 00 00 00 00 00 00 00 00 00 00 00 00 00 00 00 00 00 00 95 04 00 00 00 00 00 00 00 00 00 00 00 00 00 00 00 00 00 00 00 00 00 00
   20.602000 1  300             Rx   d 8 00 00 00 00 00 00 00 00
   20.800000 CANFD   1 Rx 181 1 0 f 64 98 3A 6F 46 2E 75 20 75 00 00 00 00 00 00 00 00 00 00 00 00 00 00 00 00 00 00 00 00 00 00 00 00 00 00 00 00 00 00 00 00 00 00 00 00 00 00 00 00 00 00 00 00 00 00 00 00 00 00 00 00 00 00 00 00
   20.800300 CANFD   1 Rx 182 1 0 f 8 2A 79 00 00 00 00 00 00
   20.800500 1  183             Rx   d 8 40 06 05 00 65 04 00 00
   20.801000 CANFD   1 Rx 184 1 0 f 16 84 80 2B 80 B8 26 00 00 00 00 00 00 00 00 00 00
   20.801500 CANFD   1 Rx 2A0 1 0 f 64 F4 01 EA 04 00 00 00 00 00 00 00 00 00 00 00 00 00 00 00 00 00 00 00 00 00 00 00 00 00 00 00 00 00 00 00 00 00 00 00 00 97 04 00 00 00 00 00 00 00 00 00 00 00 00 00 00 00 00 00 00 00 00 00 00
   20.802000 1  300             Rx   d 8 00 00 00 00 00 00 00 00
   21.000000 CANFD   1 Rx 181 1 0 f 64 98 3A 6F 46 31 75 21 75 00 00 00 00 00 00 00 00 00 00 00 00 00 00 00 00 00 00 00 00 00 00 00 00 00 00 00 00 00 00 00 00 00 00 00 00 00 00 00 00 00 00 00 00 00 00 00 00 00 00 00 00 00 00 00 00
   21.000300 CANFD   1 Rx 182 1 0 f 8 29 79 00 00 00 00 00 00
   21.000500 1  183             Rx   d 8 40 06 05 00 67 04 00 00
   21.001000 CANFD   1 Rx 184 1 0 f 16 84 80 2E 80 10 27 00 00 00 00 00 00 00 00 00 00
   21.001500 CANFD   1 Rx 2A0 1 0 f 64 F4 01 ED 04 00 00 00 00 00 00 00 00 00 00 00 00 00 00 00 00 00 00 00 00 00 00 00 00 00 00 00 00 00 00 00 00 00 00 00 00 99 04 00 00 00 00 00 00 00 00 00 00 00 00 00 00 00 00 00 00 00 00 00 00
   21.002000 1  300             Rx   d 8 00 00 00 00 00 00 00 00
   21.002500 1  185             Rx   d 8 16 03 8D 05 00 00 00 00
   21.003000 1  186             Rx   d 8 93 76 00 00 41 02 00 00
   21.003500 1  310             Tx   d 8 A0 00 00 00 00 00 00 00
   21.200000 CANFD   1 Rx 181 1 0 f 64 98 3A 6F 46 34 75 22 75 00 00 00 00 00 00 00 00 00 00 00 00 00 00 00 00 00 00 00 00 00 00 00 00 00 00 00 00 00 00 00 00 00 00 00 00 00 00 00 00 00 00 00 00 00 00 00 00 00 00 00 00 00 00 00 00
   21.200300 CANFD   1 Rx 182 1 0 f 8 27 79 00 00 00 00 00 00
   21.200500 1  183             Rx   d 8 40 06 05 00 6A 04 00 00
   21.201000 CANFD   1 Rx 184 1 0 f 16 85 80 31 80 68 27 00 00 00 00 00 00 00 00 00 00
   21.201500 CANFD   1 Rx 2A0 1 0 f 64 F4 01 EF 04 00 00 00 00 00 00 00 00 00 00 00 00 00 00 00 00 00 00 00 00 00 00 00 00 00 00 00 00 00 00 00 00 00 00 00 00 9C 04 00 00 00 00 00 00 00 00 00 00 00 00 00 00 00 00 00 00 00 00 00 00
   21.202000 1  300             Rx   d 8 00 00 00 00 00 00 00 00
   21.400000 CANFD   1 Rx 181 1 0 f 64 98 3A 6F 46 37 75 23 75 00 00 00 00 00 00 00 00 00 00 00 00 00 00 00 00 00 00 00 00 00 00 00 00 00 00 00 00 00 00 00 00 00 00 00 00 00 00 00 00 00 00 00 00 00 00 00 00 00 00 00 00 00 00 00 00
   21.400300 CANFD   1 Rx 182 1 0 f 8 25 79 00 00 00 00 00 00
   21.400500 1  183             Rx   d 8 40 06 05 00 6C 04 00 00
   21.401000 CANFD   1 Rx 184 1 0 f 16 86 80 33 80 81 26 00 00 00 00 00 00 00 00 00 00
   21.401500 CANFD   1 Rx 2A0 1 0 f 64 F4 01 F1 04 00 00 00 00 00 00 00 00 00 00 00 00 00 00 00 00 00 00 00 00 00 00 00 00 00 00 00 00 00 00 00 00 00 00 00 00 9E 04 00 00 00 00 00 00 00 00 00 00 00 00 00 00 00 00 00 00 00 00 00 00
   21.402000 1  300             Rx   d 8 00 00 00 00 00 00 00 00
   21.502500 1  185             Rx   d 8 15 03 91 05 00 00 00 00
   21.503000 1  186             Rx   d 8 DB 96 00 00 41 02 00 00
   21.503500 1  310             Tx   d 8 A0 00 00 00 00 00 00 00
   21.600000 CANFD   1 Rx 181 1 0 f 64 98 3A 6F 46 3A 75 25 75 00 00 00 00 00 00 00 00 00 00 00 00 00 00 00 00 00 00 00 00 00 00 00 00 00 00 00 00 00 00 00 00 00 00 00 00 00 00 00 00 00 00 00 00 00 00 00 00 00 00 00 00 00 00 00 00
   21.600300 CANFD   1 Rx 182 1 0 f 8 23 79 00 00 00 00 00 00
   21.600500 1  183             Rx   d 8 40 06 05 00 6E 04 00 00
   21.601000 CANFD   1 Rx 184 1 0 f 16 86 80 36 80 9F 27 00 00 00 00 00 00 00 00 00 00
   21.601500 CANFD   1 Rx 2A0 1 0 f 64 F4 01 F1 04 00 00 00 00 00 00 00 00 00 00 00 00 00 00 00 00 00 00 00 00 00 00 00 00 00 00 00 00 00 00 00 00 00 00 00 00 A0 04 00 00 00 00 00 00 00 00 00 00 00 00 00 00 00 00 00 00 00 00 00 00
   21.602000 1  300             Rx   d 8 00 00 00 00 00 00 00 00
   21.800000 CANFD   1 Rx 181 1 0 f 64 98 3A 6F 46 3D 75 26 75 00 00 00 00 00 00 00 00 00 00 00 00 00 00 00 00 00 00 00 00 00 00 00 00 00 00 00 00 00 00 00 00 00 00 00 00 00 00 00 00 00 00 00 00 00 00 00 00 00 00 00 00 00 00 00 00
   21.800300 CANFD   1 Rx 182 1 0 f 8 21 79 00 00 00 00 00 00
   21.800500 1  183             Rx   d 8 40 06 05 00 70 04 00 00
   21.801000 CANFD   1 Rx 184 1 0 f 16 87 80 39 80 B8 26 00 00 00 00 00 00 00 00 00 00
   21.801500 CANFD   1 Rx 2A0 1 0 f 64 F4 01 EF 04 00 00 00 00 00 00 00 00 00 00 00 00 00 00 00 00 00 00 00 00 00 00 00 00 00 00 00 00 00 00 00 00 00 00 00 00 A2 04 00 00 00 00 00 00 00 00 00 00 00 00 00 00 00 00 00 00 00 00 00 00
   21.802000 1  300             Rx   d 8 00 00 00 00 00 00 00 00
   22.000000 CANFD   1 Rx 181 1 0 f 64 98 3A 6F 46 40 75 27 75 00 00 00 00 00 00 00 00 00 00 00 00 00 00 00 00 00 00 00 00 00 00 00 00 00 00 00 00 00 00 00 00 00 00 00 00 00 00 00 00 00 00 00 00 00 00 00 00 00 00 00 00 00 00 00 00
   22.000300 CANFD   1 Rx 182 1 0 f 8 1E 79 00 00 00 00 00 00
   22.000500 1  183             Rx   d 8 40 06 05 00 73 04 00 00
   22.001000 CANFD   1 Rx 184 1 0 f 16 87 80 3C 80 10 27 00 00 00 00 00 00 00 00 00 00
   22.001500 CANFD   1 Rx 2A0 1 0 f 64 F4 01 EC 04 00 00 00 00 00 00 00 00 00 00 00 00 00 00 00 00 00 00 00 00 00 00 00 00 00 00 00 00 00 00 00 00 00 00 00 00 A5 04 00 00 00 00 00 00 00 00 00 00 00 00 00 00 00 00 00 00 00 00 00 00
   22.002000 1  300             Rx   d 8 00 00 00 00 00 00 00 00
   22.002500 1  185             Rx   d 8 15 03 8C 05 00 00 00 00
   22.003000 1  186             Rx   d 8 F3 B1 00 00 41 02 00 00
   22.003500 1  310             Tx   d 8 A0 00 00 00 00 00 00 00
   22.200000 CANFD   1 Rx 181 1 0 f 64 98 3A 6F 46 42 75 28 75 00 00 00 00 00 00 00 00 00 00 00 00 00 00 00 00 00 00 00 00 00 00 00 00 00 00 00 00 00 00 00 00 00 00 00 00 00 00 00 00 00 00 00 00 00 00 00 00 00 00 00 00 00 00 00 00
   22.200300 CANFD   1 Rx 182 1 0 f 8 1B 79 00 00 00 00 00 00
   22.200500 1  183             Rx   d 8 40 06 05 00 75 04 00 00
   22.201000 CANFD   1 Rx 184 1 0 f 16 87 80 3E 80 68 27 00 00 00 00 00 00 00 00 00 00
   22.201500 CANFD   1 Rx 2A0 1 0 f 64 F4 01 E9 04 00 00 00 00 00 00 00 00 00 00 00 00 00 00 00 00 00 00 00 00 00 00 00 00 00 00 00 00 00 00 00 00 00 00 00 00 A7 04 00 00 00 00 00 00 00 00 00 00 00 00 00 00 00 00 00 00 00 00 00 00
   22.202000 1  300             Rx   d 8 00 00 00 00 00 00 00 00
   22.400000 CANFD   1 Rx 181 1 0 f 64 98 3A 6F 46 45 75 29 75 00 00 00 00 00 00 00 00 00 00 00 00 00 00 00 00 00 00 00 00 00 00 00 00 00 00 00 00 00 00 00 00 00 00 00 00 00 00 00 00 00 00 00 00 00 00 00 00 00 00 00 00 00 00 00 00
   22.400300 CANFD   1 Rx 182 1 0 f 8 19 79 00 00 00 00 00 00
   22.400500 1  183             Rx   d 8 40 06 05 00 77 04 00 00
   22.401000 CANFD   1 Rx 184 1 0 f 16 88 80 41 80 81 26 00 00 00 00 00 00 00 00 00 00
   22.401500 CANFD   1 Rx 2A0 1 0 f 64 F4 01 E7 04 00 00 00 00 00 00 00 00 00 00 00 00 00 00 00 00 00 00 00 00 00 00 00 00 00 00 00 00 00 00 00 00 00 00 00 00 A9 04 00 00 00 00 00 00 00 00 00 00 00 00 00 00 00 00 00 00 00 00 00 00
   22.402000 1  300             Rx   d 8 00 00 00 00 00 00 00 00
   22.502500 1  185             Rx   d 8 15 03 87 05 00 00 00 00
   22.503000 1  186             Rx   d 8 FD CB 00 00 41 02 00 00
   22.503500 1  310             Tx   d 8 A0 00 00 00 00 00 00 00
   22.600000 CANFD   1 Rx 181 1 0 f 64 98 3A 6F 46 48 75 2A 75 00 00 00 00 00 00 00 00 00 00 00 00 00 00 00 00 00 00 00 00 00 00 00 00 00 00 00 00 00 00 00 00 00 00 00 00 00 00 00 00 00 00 00 00 00 00 00 00 00 00 00 00 00 00 00 00
   22.600300 CANFD   1 Rx 182 1 0 f 8 16 79 00 00 00 00 00 00
   22.600500 1  183             Rx   d 8 40 06 05 00 79 04 00 00
   22.601000 CANFD   1 Rx 184 1 0 f 16 88 80 44 80 9F 27 00 00 00 00 00 00 00 00 00 00
   22.601500 CANFD   1 Rx 2A0 1 0 f 64 F4 01 E7 04 00 00 00 00 00 00 00 00 00 00 00 00 00 00 00 00 00 00 00 00 00 00 00 00 00 00 00 00 00 00 00 00 00 00 00 00 AB 04 00 00 00 00 00 00 00 00 00 00 00 00 00 00 00 00 00 00 00 00 00 00
   22.602000 1  300             Rx   d 8 00 00 00 00 00 00 00 00
   22.800000 CANFD   1 Rx 181 1 0 f 64 98 3A 6F 46 4A 75 2B 75 00 00 00 00 00 00 00 00 00 00 00 00 00 00 00 00 00 00 00 00 00 00 00 00 00 00 00 00 00 00 00 00 00 00 00 00 00 00 00 00 00 00 00 00 00 00 00 00 00 00 00 00 00 00 00 00
   22.800300 CANFD   1 Rx 182 1 0 f 8 13 79 00 00 00 00 00 00
   22.800500 1  183             Rx   d 8 40 06 05 00 7B 04 00 00
   22.801000 CANFD   1 Rx 184 1 0 f 16 87 80 47 80 B8 26 00 00 00 00 00 00 00 00 00 00
   22.801500 CANFD   1 Rx 2A0 1 0 f 64 F4 01 E9 04 00 00 00 00 00 00 00 00 00 00 00 00 00 00 00 00 00 00 00 00 00 00 00 00 00 00 00 00 00 00 00 00 00 00 00 00 AD 04 00 00 00 00 00 00 00 00 00 00 00 00 00 00 00 00 00 00 00 00 00 00
   22.802000 1  300             Rx   d 8 00 00 00 00 00 00 00 00
   23.000000 CANFD   1 Rx 181 1 0 f 64 98 3A 6F 46 4D 75 2D 75 00 00 00 00 00 00 00 00 00 00 00 00 00 00 00 00 00 00 00 00 00 00 00 00 00 00 00 00 00 00 00 00 00 00 00 00 00 00 00 00 00 00 00 00 00 00 00 00 00 00 00 00 00 00 00 00
   23.000300 CANFD   1 Rx 182 1 0 f 8 10 79 00 00 00 00 00 00
   23.000500 1  183             Rx   d 8 40 06 05 00 7D 04 00 00
   23.001000 CANFD   1 Rx 184 1 0 f 16 87 80 49 80 10 27 00 00 00 00 00 00 00 00 00 00
   23.001500 CANFD   1 Rx 2A0 1 0 f 64 F4 01 EB 04 00 00 00 00 00 00 00 00 00 00 00 00 00 00 00 00 00 00 00 00 00 00 00 00 00 00 00 00 00 00 00 00 00 00 00 00 AF 04 00 00 00 00 00 00 00 00 00 00 00 00 00 00 00 00 00 00 00 00 00 00
   23.002000 1  300             Rx   d 8 00 00 00 00 00 00 00 00
   23.002500 1  185             Rx   d 8 14 03 8B 05 00 00 00 00
   23.003000 1  186             Rx   d 8 03 E8 00 00 41 02 00 00
   23.003500 1  310             Tx   d 8 A0 00 00 00 00 00 00 00
   23.200000 CANFD   1 Rx 181 1 0 f 64 98 3A 6F 46 4F 75 2E 75 00 00 00 00 00 00 00 00 00 00 00 00 00 00 00 00 00 00 00 00 00 00 00 00 00 00 00 00 00 00 00 00 00 00 00 00 00 00 00 00 00 00 00 00 00 00 00 00 00 00 00 00 00 00 00 00
   23.200300 CANFD   1 Rx 182 1 0 f 8 0E 79 00 00 00 00 00 00
   23.200500 1  183             Rx   d 8 40 06 05 00 7F 04 00 00
   23.201000 CANFD   1 Rx 184 1 0 f 16 87 80 4C 80 68 27 00 00 00 00 00 00 00 00 00 00
   23.201500 CANFD   1 Rx 2A0 1 0 f 64 F4 01 EE 04 00 00 00 00 00 00 00 00 00 00 00 00 00 00 00 00 00 00 00 00 00 00 00 00 00 00 00 00 00 00 00 00 00 00 00 00 B1 04 00 00 00 00 00 00 00 00 00 00 00 00 00 00 00 00 00 00 00 00 00 00
   23.202000 1  300             Rx   d 8 00 00 00 00 00 00 00 00
   23.400000 CANFD   1 Rx 181 1 0 f 64 98 3A 6F 46 52 75 2F 75 00 00 00 00 00 00 00 00 00 00 00 00 00 00 00 00 00 00 00 00 00 00 00 00 00 00 00 00 00 00 00 00 00 00 00 00 00 00 00 00 00 00 00 00 00 00 00 00 00 00 00 00 00 00 00 00
   23.400300 CANFD   1 Rx 182 1 0 f 8 0C 79 00 00 00 00 00 00
   23.400500 1  183             Rx   d 8 40 06 05 00 81 04 00 00
   23.401000 CANFD   1 Rx 184 1 0 f 16 86 80 4F 80 81 26 00 00 00 00 00 00 00 00 00 00
   23.401500 CANFD   1 Rx 2A0 1 0 f 64 F4 01 F0 04 00 00 00 00 00 00 00 00 00 00 00 00 00 00 00 00 00 00 00 00 00 00 00 00 00 00 00 00 00 00 00 00 00 00 00 00 B3 04 00 00 00 00 00 00 00 00 00 00 00 00 00 00 00 00 00 00 00 00 00 00
   23.402000 1  300             Rx   d 8 00 00 00 00 00 00 00 00
   23.502500 1  185             Rx   d 8 14 03 91 05 00 00 00 00
   23.503000 1  186             Rx   d 8 D8 FA 00 00 42 02 00 00
   23.503500 1  310             Tx   d 8 A0 00 00 00 00 00 00 00
   23.600000 CANFD   1 Rx 181 1 0 f 64 98 3A 6F 46 54 75 30 75 00 00 00 00 00 00 00 00 00 00 00 00 00 00 00 00 00 00 00 00 00 00 00 00 00 00 00 00 00 00 00 00 00 00 00 00 00 00 00 00 00 00 00 00 00 00 00 00 00 00 00 00 00 00 00 00
   23.600300 CANFD   1 Rx 182 1 0 f 8 09 79 00 00 00 00 00 00
   23.600500 1  183             Rx   d 8 40 06 05 00 83 04 00 00
   23.601000 CANFD   1 Rx 184 1 0 f 16 86 80 52 80 9F 27 00 00 00 00 00 00 00 00 00 00
   23.601500 CANFD   1 Rx 2A0 1 0 f 64 F4 01 F1 04 00 00 00 00 00 00 00 00 00 00 00 00 00 00 00 00 00 00 00 00 00 00 00 00 00 00 00 00 00 00 00 00 00 00 00 00 B5 04 00 00 00 00 00 00 00 00 00 00 00 00 00 00 00 00 00 00 00 00 00 00
   23.602000 1  300             Rx   d 8 00 00 00 00 00 00 00 00
   23.800000 CANFD   1 Rx 181 1 0 f 64 98 3A 6F 46 56 75 31 75 00 00 00 00 00 00 00 00 00 00 00 00 00 00 00 00 00 00 00 00 00 00 00 00 00 00 00 00 00 00 00 00 00 00 00 00 00 00 00 00 00 00 00 00 00 00 00 00 00 00 00 00 00 00 00 00
   23.800300 CANFD   1 Rx 182 1 0 f 8 08 79 00 00 00 00 00 00
   23.800500 1  183             Rx   d 8 40 06 05 00 85 04 00 00
   23.801000 CANFD   1 Rx 184 1 0 f 16 85 80 54 80 B8 26 00 00 00 00 00 00 00 00 00 00
   23.801500 CANFD   1 Rx 2A0 1 0 f 64 F4 01 F0 04 00 00 00 00 00 00 00 00 00 00 00 00 00 00 00 00 00 00 00 00 00 00 00 00 00 00 00 00 00 00 00 00 00 00 00 00 B7 04 00 00 00 00 00 00 00 00 00 00 00 00 00 00 00 00 00 00 00 00 00 00
   23.802000 1  300             Rx   d 8 00 00 00 00 00 00 00 00
   24.000000 CANFD   1 Rx 181 1 0 f 64 98 3A 6F 46 58 75 33 75 00 00 00 00 00 00 00 00 00 00 00 00 00 00 00 00 00 00 00 00 00 00 00 00 00 00 00 00 00 00 00 00 00 00 00 00 00 00 00 00 00 00 00 00 00 00 00 00 00 00 00 00 00 00 00 00
   24.000300 CANFD   1 Rx 182 1 0 f 8 06 79 00 00 00 00 00 00
   24.000500 1  183             Rx   d 8 40 06 05 00 87 04 00 00
   24.001000 CANFD   1 Rx 184 1 0 f 16 84 80 57 80 10 27 00 00 00 00 00 00 00 00 00 00
   24.001500 CANFD   1 Rx 2A0 1 0 f 64 F4 01 ED 04 00 00 00 00 00 00 00 00 00 00 00 00 00 00 00 00 00 00 00 00 00 00 00 00 00 00 00 00 00 00 00 00 00 00 00 00 B9 04 00 00 00 00 00 00 00 00 00 00 00 00 00 00 00 00 00 00 00 00 00 00
   24.002000 1  300             Rx   d 8 00 00 00 00 00 00 00 00
   24.002500 1  185             Rx   d 8 14 03 8D 05 00 00 00 00
   24.003000 1  186             Rx   d 8 56 11 01 00 42 02 00 00
   24.003500 1  310             Tx   d 8 A0 00 00 00 00 00 00 00
   24.200000 CANFD   1 Rx 181 1 0 f 64 98 3A 6F 46 59 75 34 75 00 00 00 00 00 00 00 00 00 00 00 00 00 00 00 00 00 00 00 00 00 00 00 00 00 00 00 00 00 00 00 00 00 00 00 00 00 00 00 00 00 00 00 00 00 00 00 00 00 00 00 00 00 00 00 00
   24.200300 CANFD   1 Rx 182 1 0 f 8 05 79 00 00 00 00 00 00
   24.200500 1  183             Rx   d 8 40 06 05 00 89 04 00 00
   24.201000 CANFD   1 Rx 184 1 0 f 16 83 80 5A 80 68 27 00 00 00 00 00 00 00 00 00 00
   24.201500 CANFD   1 Rx 2A0 1 0 f 64 F4 01 EA 04 00 00 00 00 00 00 00 00 00 00 00 00 00 00 00 00 00 00 00 00 00 00 00 00 00 00 00 00 00 00 00 00 00 00 00 00 BB 04 00 00 00 00 00 00 00 00 00 00 00 00 00 00 00 00 00 00 00 00 00 00
   24.202000 1  300             Rx   d 8 00 00 00 00 00 00 00 00
   24.400000 CANFD   1 Rx 181 1 0 f 64 98 3A 6F 46 5B 75 35 75 00 00 00 00 00 00 00 00 00 00 00 00 00 00 00 00 00 00 00 00 00 00 00 00 00 00 00 00 00 00 00 00 00 00 00 00 00 00 00 00 00 00 00 00 00 00 00 00 00 00 00 00 00 00 00 00
